(1711383850.164062) can0 00000065#0000FF000000FF06
(1711383850.164074) can0 00000066#FFBA13000000FF0E
(1711383850.164100) can0 00000067#FFFF00000000000A
(1711383850.164104) can0 00000068#740B7B0BED0BF90B
(1711383850.164109) can0 00000069#0000FFFF00000003
(1711383850.164114) can0 0000006A#0C27FFFF0000000C
(1711383850.214443) can0 00000065#3200FF000000FF07
(1711383850.214481) can0 00000066#FFCA13000000FF0F
(1711383850.214499) can0 00000067#FFFF00000000000B
(1711383850.214517) can0 00000068#920B840BB20B8D0B
(1711383850.214537) can0 00000069#0000FFFF00000004
(1711383850.214556) can0 0000006A#0727FFFF0000000D
(1711383850.264868) can0 00000065#6400FF000000FF08
(1711383850.264922) can0 00000066#FF5513000000FF00
(1711383850.264950) can0 00000067#FFFF00000000000C
(1711383850.264977) can0 00000068#F10B6A0BC70B570B
(1711383850.265006) can0 00000069#0000FFFF00000005
(1711383850.265035) can0 0000006A#0427FFFF0000000E
(1711383850.315451) can0 00000065#9600FF000000FF09
(1711383850.315504) can0 00000066#FF9D13000000FF01
(1711383850.315528) can0 00000067#FFFF00000000000D
(1711383850.315553) can0 00000068#7B0B7E0BE90B800B
(1711383850.315580) can0 00000069#0000FFFF00000006
(1711383850.315605) can0 0000006A#FF26FFFF0000000F
(1711383850.365993) can0 00000065#C800FF000000FF0A
(1711383850.366042) can0 00000066#FF6313000000FF02
(1711383850.366068) can0 00000067#FFFF00000000000E
(1711383850.366102) can0 00000068#4E0BAC0B400B880B
(1711383850.366127) can0 00000069#0000FFFF00000007
(1711383850.366155) can0 0000006A#0027FFFF00000000
(1711383850.416573) can0 00000065#FA00FF000000FF0B
(1711383850.416628) can0 00000066#FF8D13000000FF03
(1711383850.416653) can0 00000067#FFFF00000000000F
(1711383850.416679) can0 00000068#710BD40BB20BB80B
(1711383850.416705) can0 00000069#0000FFFF00000008
(1711383850.416732) can0 0000006A#FF26FFFF00000001
(1711383850.467114) can0 00000065#2C01FF000000FF0C
(1711383850.467162) can0 00000066#FF9213000000FF04
(1711383850.467186) can0 00000067#FFFF000000000000
(1711383850.467216) can0 00000068#F70BA00B9F0B820B
(1711383850.467243) can0 00000069#0000FFFF00000009
(1711383850.467268) can0 0000006A#0527FFFF00000002
(1711383850.517585) can0 00000065#5E01FF000000FF0D
(1711383850.517638) can0 00000066#FF6413000000FF05
(1711383850.517661) can0 00000067#FFFF000000000001
(1711383850.517679) can0 00000068#DC0B880BA80BDC0B
(1711383850.517699) can0 00000069#0000FFFF0000000A
(1711383850.517719) can0 0000006A#0727FFFF00000003
(1711383850.568149) can0 00000065#9001FF000000FF0E
(1711383850.568201) can0 00000066#FF7613000000FF06
(1711383850.568227) can0 00000067#FFFF000000000002
(1711383850.568254) can0 00000068#C20B410BFD0BD60B
(1711383850.568282) can0 00000069#0000FFFF0000000B
(1711383850.568309) can0 0000006A#0F27FFFF00000004
(1711383850.618681) can0 00000065#C201FF000000FF0F
(1711383850.618734) can0 00000066#FF5313000000FF07
(1711383850.618760) can0 00000067#FFFF000000000003
(1711383850.618785) can0 00000068#110CFC0BD20B540B
(1711383850.618813) can0 00000069#0000FFFF0000000C
(1711383850.618840) can0 0000006A#0D27FFFF00000005
(1711383850.669286) can0 00000065#F401FF000000FF00
(1711383850.669336) can0 00000066#FF2E13000000FF08
(1711383850.669363) can0 00000067#FFFF000000000004
(1711383850.669396) can0 00000068#480B680B6B0BE70B
(1711383850.669422) can0 00000069#0D00FFFF0000000D
(1711383850.669447) can0 0000006A#0A27FFFF00000006
(1711383850.719858) can0 00000065#2602FF000000FF01
(1711383850.719907) can0 00000066#FFCF13000000FF09
(1711383850.719934) can0 00000067#FFFF000000000005
(1711383850.719961) can0 00000068#EC0BF40B0C0CA60B
(1711383850.719988) can0 00000069#1C00FFFF0000000E
(1711383850.720014) can0 0000006A#0D27FFFF00000007
(1711383850.770442) can0 00000065#5802FF000000FF02
(1711383850.770482) can0 00000066#FF4313000000FF0A
(1711383850.770502) can0 00000067#FFFF000000000006
(1711383850.770518) can0 00000068#BF0BDF0B450BDB0B
(1711383850.770534) can0 00000069#2A00FFFF0000000F
(1711383850.770550) can0 0000006A#0327FFFF00000008
(1711383850.820944) can0 00000065#8A02FF000000FF03
(1711383850.820990) can0 00000066#FF5413000000FF0B
(1711383850.821009) can0 00000067#FFFF000000000007
(1711383850.821026) can0 00000068#450B4F0B770B070C
(1711383850.821042) can0 00000069#3800FFFF00000000
(1711383850.821059) can0 0000006A#FD26FFFF00000009
(1711383850.871503) can0 00000065#BC02FF000000FF04
(1711383850.871554) can0 00000066#FF9613000000FF0C
(1711383850.871583) can0 00000067#FFFF000000000008
(1711383850.871607) can0 00000068#D30B530BA70B5F0B
(1711383850.871624) can0 00000069#4600FFFF00000001
(1711383850.871643) can0 0000006A#F626FFFF0000000A
(1711383850.921982) can0 00000065#EE02FF000000FF05
(1711383850.922032) can0 00000066#FFE013000000FF0D
(1711383850.922051) can0 00000067#FFFF000000000009
(1711383850.922068) can0 00000068#8E0BAF0B700B630B
(1711383850.922083) can0 00000069#5300FFFF00000002
(1711383850.922100) can0 0000006A#F726FFFF0000000B
(1711383850.972483) can0 00000065#2003FF000000FF06
(1711383850.972531) can0 00000066#FFCB13000000FF0E
(1711383850.972557) can0 00000067#FFFF00000000000A
(1711383850.972581) can0 00000068#620B560BB00B9E0B
(1711383850.972599) can0 00000069#6100FFFF00000003
(1711383850.972616) can0 0000006A#F226FFFF0000000C
(1711383851.022964) can0 00000065#5203FF000000FF07
(1711383851.023004) can0 00000066#FFAE13000000FF0F
(1711383851.023025) can0 00000067#FFFF00000000000B
(1711383851.023042) can0 00000068#400B9C0BF00B4B0B
(1711383851.023060) can0 00000069#6F00FFFF00000004
(1711383851.023076) can0 0000006A#ED26FFFF0000000D
(1711383851.073516) can0 00000065#8403FF000000FF08
(1711383851.073554) can0 00000066#FF3413000000FF00
(1711383851.073571) can0 00000067#FFFF00000000000C
(1711383851.073586) can0 00000068#750B730B070C0F0C
(1711383851.073601) can0 00000069#7E00FFFF00000005
(1711383851.073617) can0 0000006A#EF26FFFF0000000E
(1711383851.124038) can0 00000065#B603FF000000FF09
(1711383851.124088) can0 00000066#FF9813000000FF01
(1711383851.124115) can0 00000067#FFFF00000000000D
(1711383851.124145) can0 00000068#BE0B430B7F0B560B
(1711383851.124170) can0 00000069#8C00FFFF00000006
(1711383851.124197) can0 0000006A#EF26FFFF0000000F
(1711383851.174615) can0 00000065#E803FF000000FF0A
(1711383851.174662) can0 00000066#FF9613000000FF02
(1711383851.174688) can0 00000067#FFFF00000000000E
(1711383851.174713) can0 00000068#F30B880B680BFC0B
(1711383851.174740) can0 00000069#9B00FFFF00000007
(1711383851.174767) can0 0000006A#E726FFFF00000000
(1711383851.225019) can0 00000065#1A04FF000000FF0B
(1711383851.225057) can0 00000066#FF7D13000000FF03
(1711383851.225078) can0 00000067#FFFF00000000000F
(1711383851.225108) can0 00000068#0F0C420B090CA10B
(1711383851.225126) can0 00000069#B100FFFF00000008
(1711383851.225144) can0 0000006A#ED26FFFF00000001
(1711383851.275538) can0 00000065#4C04FF000000FF0C
(1711383851.275580) can0 00000066#FF7613000000FF04
(1711383851.275599) can0 00000067#FFFF000000000000
(1711383851.275616) can0 00000068#AC0B040C450B890B
(1711383851.275633) can0 00000069#C600FFFF00000009
(1711383851.275649) can0 0000006A#F126FFFF00000002
(1711383851.326016) can0 00000065#7E04FF000000FF0D
(1711383851.326058) can0 00000066#FFBB13000000FF05
(1711383851.326077) can0 00000067#FFFF000000000001
(1711383851.326094) can0 00000068#020CBC0B560BBA0B
(1711383851.326112) can0 00000069#D500FFFF0000000A
(1711383851.326129) can0 0000006A#E826FFFF00000003
(1711383851.376525) can0 00000065#B004FF000000FF0E
(1711383851.376567) can0 00000066#FF9713000000FF06
(1711383851.376586) can0 00000067#FFFF000000000002
(1711383851.376604) can0 00000068#500BA80BB90BB10B
(1711383851.376621) can0 00000069#E400FFFF0000000B
(1711383851.376637) can0 0000006A#E226FFFF00000004
(1711383851.427039) can0 00000065#E204FF000000FF0F
(1711383851.427081) can0 00000066#FF6313000000FF07
(1711383851.427100) can0 00000067#FFFF000000000003
(1711383851.427117) can0 00000068#560BBC0BBC0BB80B
(1711383851.427134) can0 00000069#F600FFFF0000000C
(1711383851.427150) can0 0000006A#E126FFFF00000005
(1711383851.477565) can0 00000065#1405FF000000FF00
(1711383851.477608) can0 00000066#FF6713000000FF08
(1711383851.477674) can0 00000067#FFFF000000000004
(1711383851.477695) can0 00000068#D70B4E0BCF0B0D0C
(1711383851.477712) can0 00000069#0C01FFFF0000000D
(1711383851.477732) can0 0000006A#E526FFFF00000006
(1711383851.528137) can0 00000065#4605FF000000FF01
(1711383851.528178) can0 00000066#FFB813000000FF09
(1711383851.528197) can0 00000067#FFFF000000000005
(1711383851.528213) can0 00000068#B90B5A0B6A0B8E0B
(1711383851.528230) can0 00000069#1D01FFFF0000000E
(1711383851.528246) can0 0000006A#E326FFFF00000007
(1711383851.578647) can0 00000065#7805FF000000FF02
(1711383851.578690) can0 00000066#FF5813000000FF0A
(1711383851.578709) can0 00000067#FFFF000000000006
(1711383851.578725) can0 00000068#AD0BC10B970BE00B
(1711383851.578741) can0 00000069#2B01FFFF0000000F
(1711383851.578759) can0 0000006A#E326FFFF00000008
(1711383851.629166) can0 00000065#AA05FF000000FF03
(1711383851.629208) can0 00000066#FF4713000000FF0B
(1711383851.629229) can0 00000067#FFFF000000000007
(1711383851.629248) can0 00000068#C90BBB0B890BE30B
(1711383851.629265) can0 00000069#4201FFFF00000000
(1711383851.629282) can0 0000006A#EA26FFFF00000009
(1711383851.679703) can0 00000065#DC05FF000000FF04
(1711383851.679747) can0 00000066#FF7213000000FF0C
(1711383851.679767) can0 00000067#FFFF000000000008
(1711383851.679783) can0 00000068#6C0B780BD20B540B
(1711383851.679800) can0 00000069#5301FFFF00000001
(1711383851.679816) can0 0000006A#E026FFFF0000000A
(1711383851.730085) can0 00000065#0E06FF000000FF05
(1711383851.730127) can0 00000066#FF8E13000000FF0D
(1711383851.730146) can0 00000067#FFFF000000000009
(1711383851.730164) can0 00000068#F50B6D0B030CB50B
(1711383851.730181) can0 00000069#6501FFFF00000002
(1711383851.730198) can0 0000006A#E826FFFF0000000B
(1711383851.780650) can0 00000065#4006FF000000FF06
(1711383851.780692) can0 00000066#FFA913000000FF0E
(1711383851.780711) can0 00000067#FFFF00000000000A
(1711383851.780728) can0 00000068#B70B6F0BD30B920B
(1711383851.780743) can0 00000069#7501FFFF00000003
(1711383851.780759) can0 0000006A#DD26FFFF0000000C
(1711383851.831183) can0 00000065#7206FF000000FF07
(1711383851.831228) can0 00000066#FFA513000000FF0F
(1711383851.831248) can0 00000067#FFFF00000000000B
(1711383851.831266) can0 00000068#0D0CE10B430B810B
(1711383851.831282) can0 00000069#8501FFFF00000004
(1711383851.831301) can0 0000006A#D526FFFF0000000D
(1711383851.881734) can0 00000065#A406FF000000FF08
(1711383851.881774) can0 00000066#FF4B13000000FF00
(1711383851.881792) can0 00000067#FFFF00000000000C
(1711383851.881809) can0 00000068#4F0BE00BED0BB90B
(1711383851.881825) can0 00000069#9701FFFF00000005
(1711383851.881842) can0 0000006A#DC26FFFF0000000E
(1711383851.932272) can0 00000065#D606FF000000FF09
(1711383851.932317) can0 00000066#FFCA13000000FF01
(1711383851.932337) can0 00000067#FFFF00000000000D
(1711383851.932356) can0 00000068#8D0B070CA80BEB0B
(1711383851.932372) can0 00000069#AE01FFFF00000006
(1711383851.932390) can0 0000006A#E326FFFF0000000F
(1711383851.982748) can0 00000065#0807FF000000FF0A
(1711383851.982792) can0 00000066#FFDC13000000FF02
(1711383851.982812) can0 00000067#FFFF00000000000E
(1711383851.982831) can0 00000068#FF0B550BB90B6C0B
(1711383851.982848) can0 00000069#C401FFFF00000007
(1711383851.982865) can0 0000006A#E026FFFF00000000
(1711383852.033280) can0 00000065#3A07FF000000FF0B
(1711383852.033322) can0 00000066#FFD113000000FF03
(1711383852.033341) can0 00000067#FFFF00000000000F
(1711383852.033359) can0 00000068#A70B7C0B030C910B
(1711383852.033375) can0 00000069#DB01FFFF00000008
(1711383852.033391) can0 0000006A#E526FFFF00000001
(1711383852.083769) can0 00000065#6C07FF000000FF0C
(1711383852.083813) can0 00000066#FFA413000000FF04
(1711383852.083833) can0 00000067#FFFF000000000000
(1711383852.083853) can0 00000068#6F0B920B9B0B030C
(1711383852.083871) can0 00000069#F201FFFF00000009
(1711383852.083888) can0 0000006A#E326FFFF00000002
(1711383852.134191) can0 00000065#9E07FF000000FF0D
(1711383852.134233) can0 00000066#FF4B13000000FF05
(1711383852.134252) can0 00000067#FFFF000000000001
(1711383852.134269) can0 00000068#430BAA0BFF0BC90B
(1711383852.134287) can0 00000069#0202FFFF0000000A
(1711383852.134305) can0 0000006A#DD26FFFF00000003
(1711383852.184743) can0 00000065#D007FF000000FF0E
(1711383852.184789) can0 00000066#FF9413000000FF06
(1711383852.184811) can0 00000067#FFFF000000000002
(1711383852.184830) can0 00000068#600BA20B800BD60B
(1711383852.184847) can0 00000069#1302FFFF0000000B
(1711383852.184865) can0 0000006A#D326FFFF00000004
(1711383852.235213) can0 00000065#0208FF000000FF0F
(1711383852.235267) can0 00000066#FF4313000000FF07
(1711383852.235296) can0 00000067#FFFF000000000003
(1711383852.235324) can0 00000068#620BE10B0F0CF80B
(1711383852.235351) can0 00000069#2102FFFF0000000C
(1711383852.235379) can0 0000006A#C826FFFF00000005
(1711383852.285718) can0 00000065#3408FF000000FF00
(1711383852.285769) can0 00000066#FFD513000000FF08
(1711383852.285798) can0 00000067#FFFF000000000004
(1711383852.285827) can0 00000068#6B0B520BE40B940B
(1711383852.285846) can0 00000069#3602FFFF0000000D
(1711383852.285865) can0 0000006A#CB26FFFF00000006
(1711383852.336297) can0 00000065#6608FF000000FF01
(1711383852.336339) can0 00000066#FF8013000000FF09
(1711383852.336357) can0 00000067#FFFF000000000005
(1711383852.336374) can0 00000068#FE0BBF0B670B8E0B
(1711383852.336390) can0 00000069#4702FFFF0000000E
(1711383852.336406) can0 0000006A#C026FFFF00000007
(1711383852.386827) can0 00000065#9808FF000000FF02
(1711383852.386870) can0 00000066#FF4613000000FF0A
(1711383852.386889) can0 00000067#FFFF000000000006
(1711383852.386906) can0 00000068#6C0BD00BA10B480B
(1711383852.386922) can0 00000069#5B02FFFF0000000F
(1711383852.386940) can0 0000006A#C626FFFF00000008
(1711383852.437370) can0 00000065#CA08FF000000FF03
(1711383852.437413) can0 00000066#FF3113000000FF0B
(1711383852.437433) can0 00000067#FFFF000000000007
(1711383852.437450) can0 00000068#A70B990BA20B9A0B
(1711383852.437466) can0 00000069#7102FFFF00000000
(1711383852.437483) can0 0000006A#CB26FFFF00000009
(1711383852.487892) can0 00000065#FC08FF000000FF04
(1711383852.487934) can0 00000066#FFCD13000000FF0C
(1711383852.487954) can0 00000067#FFFF000000000008
(1711383852.487973) can0 00000068#540B880B7B0B9E0B
(1711383852.487989) can0 00000069#8702FFFF00000001
(1711383852.488005) can0 0000006A#D226FFFF0000000A
(1711383852.538419) can0 00000065#2E09FF000000FF05
(1711383852.538463) can0 00000066#FF7513000000FF0D
(1711383852.538482) can0 00000067#FFFF000000000009
(1711383852.538499) can0 00000068#D30BE40B7E0BD90B
(1711383852.538517) can0 00000069#9A02FFFF00000002
(1711383852.538534) can0 0000006A#D926FFFF0000000B
(1711383852.588964) can0 00000065#6009FF000000FF06
(1711383852.589009) can0 00000066#FF5613000000FF0E
(1711383852.589027) can0 00000067#FFFF00000000000A
(1711383852.589044) can0 00000068#870BD70BAC0B730B
(1711383852.589061) can0 00000069#A802FFFF00000003
(1711383852.589077) can0 0000006A#D926FFFF0000000C
(1711383852.639453) can0 00000065#9209FF000000FF07
(1711383852.639497) can0 00000066#FF6013000000FF0F
(1711383852.639516) can0 00000067#FFFF00000000000B
(1711383852.639534) can0 00000068#4B0B540BD50BF10B
(1711383852.639551) can0 00000069#B602FFFF00000004
(1711383852.639570) can0 0000006A#CF26FFFF0000000D
(1711383852.690019) can0 00000065#C409FF000000FF08
(1711383852.690063) can0 00000066#FFD313000000FF00
(1711383852.690081) can0 00000067#FFFF00000000000C
(1711383852.690097) can0 00000068#5B0B810B5A0BFB0B
(1711383852.690113) can0 00000069#C602FFFF00000005
(1711383852.690128) can0 0000006A#CB26FFFF0000000E
(1711383852.740512) can0 00000065#F609FF000000FF09
(1711383852.740555) can0 00000066#FF5E13000000FF01
(1711383852.740577) can0 00000067#FFFF00000000000D
(1711383852.740594) can0 00000068#850B0D0CF70B7C0B
(1711383852.740610) can0 00000069#D902FFFF00000006
(1711383852.740626) can0 0000006A#CB26FFFF0000000F
(1711383852.791072) can0 00000065#280AFF000000FF0A
(1711383852.791115) can0 00000066#FFDA13000000FF02
(1711383852.791135) can0 00000067#FFFF00000000000E
(1711383852.791152) can0 00000068#400B520BE20BF60B
(1711383852.791170) can0 00000069#ED02FFFF00000007
(1711383852.791187) can0 0000006A#CD26FFFF00000000
(1711383852.841515) can0 00000065#5A0AFF000000FF0B
(1711383852.841562) can0 00000066#FF6D13000000FF03
(1711383852.841584) can0 00000067#FFFF00000000000F
(1711383852.841603) can0 00000068#590B520BA20BB70B
(1711383852.841621) can0 00000069#0103FFFF00000008
(1711383852.841673) can0 0000006A#D226FFFF00000001
(1711383852.892088) can0 00000065#8C0AFF000000FF0C
(1711383852.892139) can0 00000066#FF4413000000FF04
(1711383852.892165) can0 00000067#FFFF000000000000
(1711383852.892189) can0 00000068#A30B510BB40BFF0B
(1711383852.892211) can0 00000069#1703FFFF00000009
(1711383852.892231) can0 0000006A#D926FFFF00000002
(1711383852.942658) can0 00000065#BE0AFF000000FF0D
(1711383852.942701) can0 00000066#FF6013000000FF05
(1711383852.942721) can0 00000067#FFFF000000000001
(1711383852.942740) can0 00000068#0A0C420B450BD90B
(1711383852.942756) can0 00000069#2903FFFF0000000A
(1711383852.942773) can0 0000006A#DE26FFFF00000003
(1711383852.993197) can0 00000065#F00AFF000000FF0E
(1711383852.993244) can0 00000066#FFD613000000FF06
(1711383852.993265) can0 00000067#FFFF000000000002
(1711383852.993281) can0 00000068#780B8C0B6B0BC90B
(1711383852.993298) can0 00000069#3D03FFFF0000000B
(1711383852.993314) can0 0000006A#D426FFFF00000004
(1711383853.043752) can0 00000065#220BFF000000FF0F
(1711383853.043797) can0 00000066#FF9D13000000FF07
(1711383853.043818) can0 00000067#FFFF000000000003
(1711383853.043837) can0 00000068#C70BEF0BA80BC30B
(1711383853.043853) can0 00000069#5403FFFF0000000C
(1711383853.043869) can0 0000006A#D226FFFF00000005
(1711383853.094249) can0 00000065#540BFF000000FF00
(1711383853.094295) can0 00000066#FF3F13000000FF08
(1711383853.094316) can0 00000067#FFFF000000000004
(1711383853.094332) can0 00000068#6E0BEB0B840BE90B
(1711383853.094349) can0 00000069#6B03FFFF0000000D
(1711383853.094365) can0 0000006A#D826FFFF00000006
(1711383853.144871) can0 00000065#860BFF000000FF01
(1711383853.144915) can0 00000066#FF9713000000FF09
(1711383853.144936) can0 00000067#FFFF000000000005
(1711383853.144952) can0 00000068#850B920BD60B110C
(1711383853.144968) can0 00000069#7D03FFFF0000000E
(1711383853.144983) can0 0000006A#D426FFFF00000007
(1711383853.195393) can0 00000065#B80BFF000000FF02
(1711383853.195436) can0 00000066#FFDC13000000FF0A
(1711383853.195456) can0 00000067#FFFF000000000006
(1711383853.195473) can0 00000068#900BC40B000CC20B
(1711383853.195490) can0 00000069#8E03FFFF0000000F
(1711383853.195506) can0 0000006A#C726FFFF00000008
(1711383853.245962) can0 00000065#EA0BFF000000FF03
(1711383853.246006) can0 00000066#FF8D13000000FF0B
(1711383853.246025) can0 00000067#FFFF000000000007
(1711383853.246042) can0 00000068#8D0BDF0B910B4F0B
(1711383853.246059) can0 00000069#9F03FFFF00000000
(1711383853.246077) can0 0000006A#C726FFFF00000009
(1711383853.296448) can0 00000065#1C0CFF000000FF04
(1711383853.296478) can0 00000066#FFB713000000FF0C
(1711383853.296491) can0 00000067#FFFF000000000008
(1711383853.296502) can0 00000068#E50B100CEF0BCD0B
(1711383853.296514) can0 00000069#B503FFFF00000001
(1711383853.296525) can0 0000006A#C126FFFF0000000A
(1711383853.346815) can0 00000065#4E0CFF000000FF05
(1711383853.346854) can0 00000066#FF8413000000FF0D
(1711383853.346874) can0 00000067#FFFF000000000009
(1711383853.346891) can0 00000068#440B900BC00B830B
(1711383853.346906) can0 00000069#CB03FFFF00000002
(1711383853.346921) can0 0000006A#C126FFFF0000000B
(1711383853.397338) can0 00000065#800CFF000000FF06
(1711383853.397382) can0 00000066#FFBD13000000FF0E
(1711383853.397401) can0 00000067#FFFF00000000000A
(1711383853.397419) can0 00000068#4A0BF40BBA0B670B
(1711383853.397436) can0 00000069#DD03FFFF00000003
(1711383853.397453) can0 0000006A#B726FFFF0000000C
(1711383853.447933) can0 00000065#B20CFF000000FF07
(1711383853.447978) can0 00000066#FF8C13000000FF0F
(1711383853.447997) can0 00000067#FFFF00000000000B
(1711383853.448013) can0 00000068#E80BB70B7C0B450B
(1711383853.448030) can0 00000069#F403FFFF00000004
(1711383853.448047) can0 0000006A#BA26FFFF0000000D
(1711383853.498491) can0 00000065#E40CFF000000FF08
(1711383853.498537) can0 00000066#FF5313000000FF00
(1711383853.498557) can0 00000067#FFFF00000000000C
(1711383853.498574) can0 00000068#110CD20B4A0BA40B
(1711383853.498593) can0 00000069#0804FFFF00000005
(1711383853.498610) can0 0000006A#B426FFFF0000000E
(1711383853.549018) can0 00000065#160DFF000000FF09
(1711383853.549064) can0 00000066#FF7713000000FF01
(1711383853.549084) can0 00000067#FFFF00000000000D
(1711383853.549099) can0 00000068#670B110CC80B9B0B
(1711383853.549120) can0 00000069#1604FFFF00000006
(1711383853.549138) can0 0000006A#AA26FFFF0000000F
(1711383853.599535) can0 00000065#480DFF000000FF0A
(1711383853.599580) can0 00000066#FFA813000000FF02
(1711383853.599599) can0 00000067#FFFF00000000000E
(1711383853.599617) can0 00000068#5F0B6B0B860B9D0B
(1711383853.599633) can0 00000069#2604FFFF00000007
(1711383853.599650) can0 0000006A#A626FFFF00000000
(1711383853.649976) can0 00000065#7A0DFF000000FF0B
(1711383853.650020) can0 00000066#FF7313000000FF03
(1711383853.650038) can0 00000067#FFFF00000000000F
(1711383853.650054) can0 00000068#7E0BA80B470B5C0B
(1711383853.650071) can0 00000069#3C04FFFF00000008
(1711383853.650089) can0 0000006A#A826FFFF00000001
(1711383853.700480) can0 00000065#AC0DFF000000FF0C
(1711383853.700525) can0 00000066#FFBF13000000FF04
(1711383853.700543) can0 00000067#FFFF000000000000
(1711383853.700560) can0 00000068#EF0B860BED0BD50B
(1711383853.700577) can0 00000069#4E04FFFF00000009
(1711383853.700594) can0 0000006A#A326FFFF00000002
(1711383853.750879) can0 00000065#DE0DFF000000FF0D
(1711383853.750918) can0 00000066#FF3313000000FF05
(1711383853.750936) can0 00000067#FFFF000000000001
(1711383853.750953) can0 00000068#990B570BAA0BFA0B
(1711383853.750970) can0 00000069#5E04FFFF0000000A
(1711383853.750986) can0 0000006A#A926FFFF00000003
(1711383853.801469) can0 00000065#100EFF000000FF0E
(1711383853.801513) can0 00000066#FF9413000000FF06
(1711383853.801531) can0 00000067#FFFF000000000002
(1711383853.801548) can0 00000068#820BD80B790B800B
(1711383853.801564) can0 00000069#7104FFFF0000000B
(1711383853.801582) can0 0000006A#A626FFFF00000004
(1711383853.851856) can0 00000065#420EFF000000FF0F
(1711383853.851896) can0 00000066#FF9E13000000FF07
(1711383853.851915) can0 00000067#FFFF000000000003
(1711383853.851930) can0 00000068#CD0B510B860BD40B
(1711383853.851946) can0 00000069#8404FFFF0000000C
(1711383853.851963) can0 0000006A#AC26FFFF00000005
(1711383853.902411) can0 00000065#740EFF000000FF00
(1711383853.902465) can0 00000066#FFAD13000000FF08
(1711383853.902487) can0 00000067#FFFF000000000004
(1711383853.902506) can0 00000068#020C060C4B0BFB0B
(1711383853.902524) can0 00000069#9A04FFFF0000000D
(1711383853.902544) can0 0000006A#AA26FFFF00000006
(1711383853.952972) can0 00000065#A60EFF000000FF01
(1711383853.953025) can0 00000066#FF3713000000FF09
(1711383853.953050) can0 00000067#FFFF000000000005
(1711383853.953074) can0 00000068#470BD30B9E0B660B
(1711383853.953099) can0 00000069#AC04FFFF0000000E
(1711383853.953125) can0 0000006A#A826FFFF00000007
(1711383854.003575) can0 00000065#D80EFF000000FF02
(1711383854.003633) can0 00000066#FF6913000000FF0A
(1711383854.003659) can0 00000067#FFFF000000000006
(1711383854.003686) can0 00000068#430B460B480BBF0B
(1711383854.003714) can0 00000069#BE04FFFF0000000F
(1711383854.003743) can0 0000006A#AB26FFFF00000008
(1711383854.054060) can0 00000065#0A0FFF000000FF03
(1711383854.054116) can0 00000066#FF4413000000FF0B
(1711383854.054144) can0 00000067#FFFF000000000007
(1711383854.054171) can0 00000068#F60B400B510B580B
(1711383854.054198) can0 00000069#CE04FFFF00000000
(1711383854.054227) can0 0000006A#A926FFFF00000009
(1711383854.104737) can0 00000065#3C0FFF000000FF04
(1711383854.104790) can0 00000066#FF3513000000FF0C
(1711383854.104818) can0 00000067#FFFF000000000008
(1711383854.104845) can0 00000068#040CD30BA20BDA0B
(1711383854.104873) can0 00000069#DF04FFFF00000001
(1711383854.104902) can0 0000006A#AC26FFFF0000000A
(1711383854.155318) can0 00000065#6E0FFF000000FF05
(1711383854.155371) can0 00000066#FF7D13000000FF0D
(1711383854.155396) can0 00000067#FFFF000000000009
(1711383854.155421) can0 00000068#DF0BD50BBF0BA70B
(1711383854.155448) can0 00000069#F604FFFF00000002
(1711383854.155475) can0 0000006A#A526FFFF0000000B
(1711383854.205835) can0 00000065#A00FFF000000FF06
(1711383854.205886) can0 00000066#FF3213000000FF0E
(1711383854.205912) can0 00000067#FFFF00000000000A
(1711383854.205940) can0 00000068#A10B670BCC0BD00B
(1711383854.205968) can0 00000069#0B05FFFF00000003
(1711383854.205996) can0 0000006A#A626FFFF0000000C
(1711383854.256464) can0 00000065#D20FFF000000FF07
(1711383854.256514) can0 00000066#FFB813000000FF0F
(1711383854.256541) can0 00000067#FFFF00000000000B
(1711383854.256567) can0 00000068#9A0B610B7A0BF30B
(1711383854.256592) can0 00000069#1905FFFF00000004
(1711383854.256617) can0 0000006A#A926FFFF0000000D
(1711383854.306923) can0 00000065#0410FF000000FF08
(1711383854.306957) can0 00000066#FFB513000000FF00
(1711383854.306973) can0 00000067#FFFF00000000000C
(1711383854.306988) can0 00000068#110CB30B110CDE0B
(1711383854.307003) can0 00000069#2F05FFFF00000005
(1711383854.307019) can0 0000006A#A726FFFF0000000E
(1711383854.357362) can0 00000065#3610FF000000FF09
(1711383854.357411) can0 00000066#FFBB13000000FF01
(1711383854.357437) can0 00000067#FFFF00000000000D
(1711383854.357464) can0 00000068#8F0B870BD40B670B
(1711383854.357490) can0 00000069#3D05FFFF00000006
(1711383854.357515) can0 0000006A#A726FFFF0000000F
(1711383854.407937) can0 00000065#6810FF000000FF0A
(1711383854.407990) can0 00000066#FFC113000000FF02
(1711383854.408016) can0 00000067#FFFF00000000000E
(1711383854.408042) can0 00000068#A60BD70B4F0BDE0B
(1711383854.408067) can0 00000069#5305FFFF00000007
(1711383854.408093) can0 0000006A#9F26FFFF00000000
(1711383854.458460) can0 00000065#9A10FF000000FF0B
(1711383854.458513) can0 00000066#FFAF13000000FF03
(1711383854.458539) can0 00000067#FFFF00000000000F
(1711383854.458564) can0 00000068#CF0BCE0B9A0BA10B
(1711383854.458589) can0 00000069#6705FFFF00000008
(1711383854.458613) can0 0000006A#9F26FFFF00000001
(1711383854.509003) can0 00000065#CC10FF000000FF0C
(1711383854.509057) can0 00000066#FFD113000000FF04
(1711383854.509083) can0 00000067#FFFF000000000000
(1711383854.509108) can0 00000068#FB0B6E0BD80BBF0B
(1711383854.509133) can0 00000069#7705FFFF00000009
(1711383854.509158) can0 0000006A#9D26FFFF00000002
(1711383854.559605) can0 00000065#FE10FF000000FF0D
(1711383854.559665) can0 00000066#FF8613000000FF05
(1711383854.559691) can0 00000067#FFFF000000000001
(1711383854.559719) can0 00000068#990B710BAE0B840B
(1711383854.559747) can0 00000069#8A05FFFF0000000A
(1711383854.559774) can0 0000006A#9526FFFF00000003
(1711383854.610047) can0 00000065#3011FF000000FF0E
(1711383854.610096) can0 00000066#FF4913000000FF06
(1711383854.610121) can0 00000067#FFFF000000000002
(1711383854.610148) can0 00000068#840BEA0B9E0BBE0B
(1711383854.610175) can0 00000069#9E05FFFF0000000B
(1711383854.610201) can0 0000006A#9426FFFF00000004
(1711383854.660606) can0 00000065#6211FF000000FF0F
(1711383854.660658) can0 00000066#FF9513000000FF07
(1711383854.660683) can0 00000067#FFFF000000000003
(1711383854.660707) can0 00000068#BF0BEE0BD90BA40B
(1711383854.660734) can0 00000069#AD05FFFF0000000C
(1711383854.660761) can0 0000006A#9026FFFF00000005
(1711383854.711094) can0 00000065#9411FF000000FF00
(1711383854.711141) can0 00000066#FF8B13000000FF08
(1711383854.711167) can0 00000067#FFFF000000000004
(1711383854.711197) can0 00000068#C30BDD0BC20BDA0B
(1711383854.711221) can0 00000069#C205FFFF0000000D
(1711383854.711248) can0 0000006A#9026FFFF00000006
(1711383854.761703) can0 00000065#C611FF000000FF01
(1711383854.761756) can0 00000066#FFB513000000FF09
(1711383854.761783) can0 00000067#FFFF000000000005
(1711383854.761815) can0 00000068#FA0B080CED0BE80B
(1711383854.761842) can0 00000069#D505FFFF0000000E
(1711383854.761868) can0 0000006A#9126FFFF00000007
(1711383854.812260) can0 00000065#F811FF000000FF02
(1711383854.812313) can0 00000066#FF4013000000FF0A
(1711383854.812337) can0 00000067#FFFF000000000006
(1711383854.812362) can0 00000068#A10BB10BEA0BB90B
(1711383854.812387) can0 00000069#E305FFFF0000000F
(1711383854.812413) can0 0000006A#9126FFFF00000008
(1711383854.862842) can0 00000065#2A12FF000000FF03
(1711383854.862894) can0 00000066#FFB113000000FF0B
(1711383854.862919) can0 00000067#FFFF000000000007
(1711383854.862943) can0 00000068#FD0B070CDD0B800B
(1711383854.862968) can0 00000069#F505FFFF00000000
(1711383854.862993) can0 0000006A#8926FFFF00000009
(1711383854.913411) can0 00000065#5C12FF000000FF04
(1711383854.913464) can0 00000066#FFA213000000FF0C
(1711383854.913491) can0 00000067#FFFF000000000008
(1711383854.913515) can0 00000068#FC0BD50B8F0B780B
(1711383854.913540) can0 00000069#0906FFFF00000001
(1711383854.913564) can0 0000006A#8B26FFFF0000000A
(1711383854.963990) can0 00000065#8E12FF000000FF05
(1711383854.964043) can0 00000066#FF4813000000FF0D
(1711383854.964068) can0 00000067#FFFF000000000009
(1711383854.964094) can0 00000068#CD0B810BBF0BA30B
(1711383854.964118) can0 00000069#1B06FFFF00000002
(1711383854.964144) can0 0000006A#8B26FFFF0000000B
(1711383855.014586) can0 00000065#C012FF000000FF06
(1711383855.014636) can0 00000066#FF6C13000000FF0E
(1711383855.014660) can0 00000067#FFFF00000000000A
(1711383855.014685) can0 00000068#640BDA0B4A0B060C
(1711383855.014711) can0 00000069#3006FFFF00000003
(1711383855.014736) can0 0000006A#8726FFFF0000000C
(1711383855.065112) can0 00000065#F212FF000000FF07
(1711383855.065164) can0 00000066#FFA913000000FF0F
(1711383855.065189) can0 00000067#FFFF00000000000B
(1711383855.065217) can0 00000068#CB0B7F0B0E0CBC0B
(1711383855.065243) can0 00000069#4106FFFF00000004
(1711383855.065269) can0 0000006A#7F26FFFF0000000D
(1711383855.115688) can0 00000065#2413FF000000FF08
(1711383855.115746) can0 00000066#FF7A13000000FF00
(1711383855.115775) can0 00000067#FFFF00000000000C
(1711383855.115809) can0 00000068#790B520B6E0B630B
(1711383855.115837) can0 00000069#5406FFFF00000005
(1711383855.115865) can0 0000006A#7E26FFFF0000000E
(1711383855.166164) can0 00000065#5613FF000000FF09
(1711383855.166213) can0 00000066#FF4313000000FF01
(1711383855.166238) can0 00000067#FFFF00000000000D
(1711383855.166263) can0 00000068#0B0CAB0B790B9F0B
(1711383855.166288) can0 00000069#6706FFFF00000006
(1711383855.166313) can0 0000006A#7126FFFF0000000F
(1711383855.216812) can0 00000065#8813FF000000FF0A
(1711383855.216864) can0 00000066#FF4A13000000FF02
(1711383855.216889) can0 00000067#FFFF00000000000E
(1711383855.216916) can0 00000068#C80BEB0B720BEC0B
(1711383855.216943) can0 00000069#7C06FFFF00000007
(1711383855.216970) can0 0000006A#6C26FFFF00000000
(1711383855.267333) can0 00000065#BA13FF000000FF0B
(1711383855.267384) can0 00000066#FF8F13000000FF03
(1711383855.267409) can0 00000067#FFFF00000000000F
(1711383855.267434) can0 00000068#D70B4F0BB40B870B
(1711383855.267460) can0 00000069#9106FFFF00000008
(1711383855.267485) can0 0000006A#6226FFFF00000001
(1711383855.317785) can0 00000065#EC13FF000000FF0C
(1711383855.317828) can0 00000066#FFD313000000FF04
(1711383855.317853) can0 00000067#FFFF000000000000
(1711383855.317877) can0 00000068#DA0B450B840BC50B
(1711383855.317901) can0 00000069#A406FFFF00000009
(1711383855.317926) can0 0000006A#6426FFFF00000002
(1711383855.368274) can0 00000065#1E14FF000000FF0D
(1711383855.368325) can0 00000066#FF5713000000FF05
(1711383855.368351) can0 00000067#FFFF000000000001
(1711383855.368376) can0 00000068#B10B720B730B9F0B
(1711383855.368402) can0 00000069#B706FFFF0000000A
(1711383855.368427) can0 0000006A#5F26FFFF00000003
(1711383855.418735) can0 00000065#5014FF000000FF0E
(1711383855.418785) can0 00000066#FFC913000000FF06
(1711383855.418811) can0 00000067#FFFF000000000002
(1711383855.418837) can0 00000068#F80BC30BFE0B090C
(1711383855.418861) can0 00000069#C406FFFF0000000B
(1711383855.418886) can0 0000006A#6326FFFF00000004
(1711383855.469288) can0 00000065#8214FF000000FF0F
(1711383855.469341) can0 00000066#FF4213000000FF07
(1711383855.469367) can0 00000067#FFFF000000000003
(1711383855.469392) can0 00000068#9B0B040CEF0B480B
(1711383855.469424) can0 00000069#D906FFFF0000000C
(1711383855.469449) can0 0000006A#5926FFFF00000005
(1711383855.519904) can0 00000065#B414FF000000FF00
(1711383855.519961) can0 00000066#FF6E13000000FF08
(1711383855.519989) can0 00000067#FFFF000000000004
(1711383855.520016) can0 00000068#080C880B780B540B
(1711383855.520043) can0 00000069#ED06FFFF0000000D
(1711383855.520070) can0 0000006A#5226FFFF00000006
(1711383855.570493) can0 00000065#E614FF000000FF01
(1711383855.570547) can0 00000066#FFD413000000FF09
(1711383855.570570) can0 00000067#FFFF000000000005
(1711383855.570594) can0 00000068#E90B640BAF0B970B
(1711383855.570627) can0 00000069#0107FFFF0000000E
(1711383855.570653) can0 0000006A#5326FFFF00000007
(1711383855.621082) can0 00000065#1815FF000000FF02
(1711383855.621134) can0 00000066#FFCD13000000FF0A
(1711383855.621159) can0 00000067#FFFF000000000006
(1711383855.621183) can0 00000068#DC0BDD0BA40B510B
(1711383855.621208) can0 00000069#1107FFFF0000000F
(1711383855.621236) can0 0000006A#5526FFFF00000008
(1711383855.671665) can0 00000065#4A15FF000000FF03
(1711383855.671715) can0 00000066#FFA713000000FF0B
(1711383855.671738) can0 00000067#FFFF000000000007
(1711383855.671763) can0 00000068#A30BA10B520B0A0C
(1711383855.671788) can0 00000069#2107FFFF00000000
(1711383855.671813) can0 0000006A#5826FFFF00000009
(1711383855.722148) can0 00000065#7C15FF000000FF04
(1711383855.722200) can0 00000066#FF3913000000FF0C
(1711383855.722225) can0 00000067#FFFF000000000008
(1711383855.722250) can0 00000068#C20B4E0BD00BAE0B
(1711383855.722276) can0 00000069#3107FFFF00000001
(1711383855.722302) can0 0000006A#5226FFFF0000000A
(1711383855.772740) can0 00000065#AE15FF000000FF05
(1711383855.772792) can0 00000066#FF4B13000000FF0D
(1711383855.772816) can0 00000067#FFFF000000000009
(1711383855.772842) can0 00000068#E00BA80BC50BB70B
(1711383855.772867) can0 00000069#4507FFFF00000002
(1711383855.772892) can0 0000006A#4626FFFF0000000B
(1711383855.823355) can0 00000065#E015FF000000FF06
(1711383855.823414) can0 00000066#FF9013000000FF0E
(1711383855.823441) can0 00000067#FFFF00000000000A
(1711383855.823469) can0 00000068#7C0BB30BD30B550B
(1711383855.823498) can0 00000069#5207FFFF00000003
(1711383855.823528) can0 0000006A#3A26FFFF0000000C
(1711383855.873932) can0 00000065#1216FF000000FF07
(1711383855.873986) can0 00000066#FF6A13000000FF0F
(1711383855.874010) can0 00000067#FFFF00000000000B
(1711383855.874035) can0 00000068#EA0B6B0BB60B500B
(1711383855.874060) can0 00000069#6207FFFF00000004
(1711383855.874086) can0 0000006A#2C26FFFF0000000D
(1711383855.924534) can0 00000065#4416FF000000FF08
(1711383855.924584) can0 00000066#FF9813000000FF00
(1711383855.924608) can0 00000067#FFFF00000000000C
(1711383855.924633) can0 00000068#0F0CC40BE30BFF0B
(1711383855.924658) can0 00000069#7207FFFF00000005
(1711383855.924684) can0 0000006A#2A26FFFF0000000E
(1711383855.974977) can0 00000065#7616FF000000FF09
(1711383855.975029) can0 00000066#FFC513000000FF01
(1711383855.975055) can0 00000067#FFFF00000000000D
(1711383855.975088) can0 00000068#640BA30B840B890B
(1711383855.975112) can0 00000069#8707FFFF00000006
(1711383855.975138) can0 0000006A#2626FFFF0000000F
(1711383856.025520) can0 00000065#A816FF000000FF0A
(1711383856.025569) can0 00000066#FF6513000000FF02
(1711383856.025596) can0 00000067#FFFF00000000000E
(1711383856.025622) can0 00000068#6B0BA80B620BBF0B
(1711383856.025687) can0 00000069#9607FFFF00000007
(1711383856.025713) can0 0000006A#2326FFFF00000000
(1711383856.076084) can0 00000065#DA16FF000000FF0B
(1711383856.076135) can0 00000066#FF3713000000FF03
(1711383856.076161) can0 00000067#FFFF00000000000F
(1711383856.076187) can0 00000068#F00B0E0C050C8F0B
(1711383856.076211) can0 00000069#A207FFFF00000008
(1711383856.076230) can0 0000006A#1C26FFFF00000001
(1711383856.126651) can0 00000065#0C17FF000000FF0C
(1711383856.126693) can0 00000066#FF8113000000FF04
(1711383856.126713) can0 00000067#FFFF000000000000
(1711383856.126730) can0 00000068#6B0B990B740B4C0B
(1711383856.126747) can0 00000069#AE07FFFF00000009
(1711383856.126764) can0 0000006A#1226FFFF00000002
(1711383856.177132) can0 00000065#3E17FF000000FF0D
(1711383856.177175) can0 00000066#FF5313000000FF05
(1711383856.177194) can0 00000067#FFFF000000000001
(1711383856.177211) can0 00000068#DD0BE60B600BF20B
(1711383856.177230) can0 00000069#BE07FFFF0000000A
(1711383856.177248) can0 0000006A#0C26FFFF00000003
(1711383856.227703) can0 00000065#7017FF000000FF0E
(1711383856.227747) can0 00000066#FF4313000000FF06
(1711383856.227767) can0 00000067#FFFF000000000002
(1711383856.227784) can0 00000068#8B0BF50BEC0B0B0C
(1711383856.227801) can0 00000069#D007FFFF0000000B
(1711383856.227818) can0 0000006A#0626FFFF00000004
(1711383856.278171) can0 00000065#A217FF000000FF0F
(1711383856.278213) can0 00000066#FF5C13000000FF07
(1711383856.278234) can0 00000067#FFFF000000000003
(1711383856.278251) can0 00000068#DA0BA20B960B6B0B
(1711383856.278268) can0 00000069#E307FFFF0000000C
(1711383856.278286) can0 0000006A#F725FFFF00000005
(1711383856.328714) can0 00000065#D417FF000000FF00
(1711383856.328761) can0 00000066#FF5213000000FF08
(1711383856.328784) can0 00000067#FFFF000000000004
(1711383856.328802) can0 00000068#690B6B0B800BD80B
(1711383856.328822) can0 00000069#F007FFFF0000000D
(1711383856.328839) can0 0000006A#F125FFFF00000006
(1711383856.379257) can0 00000065#0618FF000000FF01
(1711383856.379302) can0 00000066#FF7813000000FF09
(1711383856.379320) can0 00000067#FFFF000000000005
(1711383856.379337) can0 00000068#710BA10BEC0BE40B
(1711383856.379354) can0 00000069#0008FFFF0000000E
(1711383856.379371) can0 0000006A#EC25FFFF00000007
(1711383856.429810) can0 00000065#3818FF000000FF02
(1711383856.429860) can0 00000066#FFA613000000FF0A
(1711383856.429880) can0 00000067#FFFF000000000006
(1711383856.429899) can0 00000068#C30BEC0B630B9B0B
(1711383856.429915) can0 00000069#1108FFFF0000000F
(1711383856.429932) can0 0000006A#EF25FFFF00000008
(1711383856.480341) can0 00000065#6A18FF000000FF03
(1711383856.480385) can0 00000066#FF9F13000000FF0B
(1711383856.480404) can0 00000067#FFFF000000000007
(1711383856.480421) can0 00000068#840B830B090CA90B
(1711383856.480439) can0 00000069#1E08FFFF00000000
(1711383856.480455) can0 0000006A#E725FFFF00000009
(1711383856.530928) can0 00000065#9C18FF000000FF04
(1711383856.530973) can0 00000066#FFA913000000FF0C
(1711383856.530990) can0 00000067#FFFF000000000008
(1711383856.531007) can0 00000068#4F0B840BB50BA30B
(1711383856.531023) can0 00000069#3008FFFF00000001
(1711383856.531037) can0 0000006A#DB25FFFF0000000A
(1711383856.581466) can0 00000065#CE18FF000000FF05
(1711383856.581511) can0 00000066#FFBA13000000FF0D
(1711383856.581530) can0 00000067#FFFF000000000009
(1711383856.581547) can0 00000068#E10B7B0B840BAF0B
(1711383856.581566) can0 00000069#4108FFFF00000002
(1711383856.581583) can0 0000006A#CB25FFFF0000000B
(1711383856.632007) can0 00000065#0019FF000000FF06
(1711383856.632052) can0 00000066#FF8F13000000FF0E
(1711383856.632073) can0 00000067#FFFF00000000000A
(1711383856.632090) can0 00000068#E80B850BB30BD20B
(1711383856.632107) can0 00000069#5108FFFF00000003
(1711383856.632123) can0 0000006A#BD25FFFF0000000C
(1711383856.682615) can0 00000065#3219FF000000FF07
(1711383856.682671) can0 00000066#FF3213000000FF0F
(1711383856.682695) can0 00000067#FFFF00000000000B
(1711383856.682715) can0 00000068#D00B0D0CBB0B7F0B
(1711383856.682735) can0 00000069#6108FFFF00000004
(1711383856.682755) can0 0000006A#B625FFFF0000000D
(1711383856.733152) can0 00000065#6419FF000000FF08
(1711383856.733197) can0 00000066#FF6513000000FF00
(1711383856.733217) can0 00000067#FFFF00000000000C
(1711383856.733234) can0 00000068#9C0BF10BE20BCE0B
(1711383856.733251) can0 00000069#7008FFFF00000005
(1711383856.733270) can0 0000006A#B425FFFF0000000E
(1711383856.783733) can0 00000065#9619FF000000FF09
(1711383856.783783) can0 00000066#FFA413000000FF01
(1711383856.783804) can0 00000067#FFFF00000000000D
(1711383856.783823) can0 00000068#FF0BF70BD20BE80B
(1711383856.783841) can0 00000069#8408FFFF00000006
(1711383856.783859) can0 0000006A#AF25FFFF0000000F
(1711383856.834129) can0 00000065#C819FF000000FF0A
(1711383856.834172) can0 00000066#FFCE13000000FF02
(1711383856.834191) can0 00000067#FFFF00000000000E
(1711383856.834208) can0 00000068#480BEB0B7A0BBD0B
(1711383856.834224) can0 00000069#9408FFFF00000007
(1711383856.834241) can0 0000006A#A825FFFF00000000
(1711383856.884734) can0 00000065#FA19FF000000FF0B
(1711383856.884775) can0 00000066#FF3613000000FF03
(1711383856.884794) can0 00000067#FFFF00000000000F
(1711383856.884811) can0 00000068#4C0BC60B980BA40B
(1711383856.884828) can0 00000069#9F08FFFF00000008
(1711383856.884844) can0 0000006A#9A25FFFF00000001
(1711383856.935191) can0 00000065#2C1AFF000000FF0C
(1711383856.935233) can0 00000066#FF9213000000FF04
(1711383856.935253) can0 00000067#FFFF000000000000
(1711383856.935269) can0 00000068#B50BA00B640B460B
(1711383856.935285) can0 00000069#AA08FFFF00000009
(1711383856.935301) can0 0000006A#9B25FFFF00000002
(1711383856.985716) can0 00000065#5E1AFF000000FF0D
(1711383856.985763) can0 00000066#FF8313000000FF05
(1711383856.985783) can0 00000067#FFFF000000000001
(1711383856.985801) can0 00000068#5C0BB40BC20B970B
(1711383856.985818) can0 00000069#BC08FFFF0000000A
(1711383856.985837) can0 0000006A#9A25FFFF00000003
(1711383857.036267) can0 00000065#901AFF000000FF0E
(1711383857.036310) can0 00000066#FFBA13000000FF06
(1711383857.036331) can0 00000067#FFFF000000000002
(1711383857.036347) can0 00000068#980B0E0C7E0B470B
(1711383857.036363) can0 00000069#D008FFFF0000000B
(1711383857.036379) can0 0000006A#9B25FFFF00000004
(1711383857.086816) can0 00000065#C21AFF000000FF0F
(1711383857.086861) can0 00000066#FF8513000000FF07
(1711383857.086879) can0 00000067#FFFF000000000003
(1711383857.086897) can0 00000068#530B9B0BA60BE10B
(1711383857.086913) can0 00000069#E408FFFF0000000C
(1711383857.086929) can0 0000006A#9525FFFF00000005
(1711383857.137232) can0 00000065#F41AFF000000FF00
(1711383857.137272) can0 00000066#FF7713000000FF08
(1711383857.137292) can0 00000067#FFFF000000000004
(1711383857.137309) can0 00000068#C00BDD0B900B110C
(1711383857.137330) can0 00000069#F508FFFF0000000D
(1711383857.137354) can0 0000006A#8625FFFF00000006
(1711383857.187731) can0 00000065#261BFF000000FF01
(1711383857.187774) can0 00000066#FF7113000000FF09
(1711383857.187793) can0 00000067#FFFF000000000005
(1711383857.187810) can0 00000068#8B0BCD0B8E0B500B
(1711383857.187827) can0 00000069#0009FFFF0000000E
(1711383857.187845) can0 0000006A#7825FFFF00000007
(1711383857.238194) can0 00000065#581BFF000000FF02
(1711383857.238238) can0 00000066#FF3413000000FF0A
(1711383857.238258) can0 00000067#FFFF000000000006
(1711383857.238275) can0 00000068#FF0BE40B4E0B410B
(1711383857.238291) can0 00000069#0F09FFFF0000000F
(1711383857.238308) can0 0000006A#7525FFFF00000008
(1711383857.288717) can0 00000065#8A1BFF000000FF03
(1711383857.288759) can0 00000066#FFDA13000000FF0B
(1711383857.288779) can0 00000067#FFFF000000000007
(1711383857.288796) can0 00000068#890B6F0BC40B710B
(1711383857.288812) can0 00000069#2109FFFF00000000
(1711383857.288829) can0 0000006A#7325FFFF00000009
(1711383857.339224) can0 00000065#BC1BFF000000FF04
(1711383857.339267) can0 00000066#FF8E13000000FF0C
(1711383857.339287) can0 00000067#FFFF000000000008
(1711383857.339305) can0 00000068#820BFC0B750B640B
(1711383857.339322) can0 00000069#3009FFFF00000001
(1711383857.339341) can0 0000006A#7125FFFF0000000A
(1711383857.389691) can0 00000065#EE1BFF000000FF05
(1711383857.389726) can0 00000066#FF4513000000FF0D
(1711383857.389740) can0 00000067#FFFF000000000009
(1711383857.389753) can0 00000068#100CEF0B5A0B010C
(1711383857.389766) can0 00000069#3E09FFFF00000002
(1711383857.389780) can0 0000006A#6025FFFF0000000B
(1711383857.440136) can0 00000065#201CFF000000FF06
(1711383857.440182) can0 00000066#FF3313000000FF0E
(1711383857.440208) can0 00000067#FFFF00000000000A
(1711383857.440229) can0 00000068#9D0B5D0B8E0B970B
(1711383857.440252) can0 00000069#4F09FFFF00000003
(1711383857.440272) can0 0000006A#6025FFFF0000000C
(1711383857.490704) can0 00000065#521CFF000000FF07
(1711383857.490746) can0 00000066#FFC913000000FF0F
(1711383857.490765) can0 00000067#FFFF00000000000B
(1711383857.490782) can0 00000068#7D0BD10BA40B010C
(1711383857.490800) can0 00000069#5F09FFFF00000004
(1711383857.490817) can0 0000006A#5925FFFF0000000D
(1711383857.541272) can0 00000065#841CFF000000FF08
(1711383857.541333) can0 00000066#FFBF13000000FF00
(1711383857.541359) can0 00000067#FFFF00000000000C
(1711383857.541382) can0 00000068#550BB50B0B0C540B
(1711383857.541403) can0 00000069#6B09FFFF00000005
(1711383857.541425) can0 0000006A#5C25FFFF0000000E
(1711383857.591864) can0 00000065#B61CFF000000FF09
(1711383857.591913) can0 00000066#FF4213000000FF01
(1711383857.591934) can0 00000067#FFFF00000000000D
(1711383857.591952) can0 00000068#E90B070C690B5B0B
(1711383857.591969) can0 00000069#7C09FFFF00000006
(1711383857.591987) can0 0000006A#5725FFFF0000000F
(1711383857.642355) can0 00000065#E81CFF000000FF0A
(1711383857.642411) can0 00000066#FF8013000000FF02
(1711383857.642437) can0 00000067#FFFF00000000000E
(1711383857.642460) can0 00000068#BB0BF80BC30B410B
(1711383857.642482) can0 00000069#8E09FFFF00000007
(1711383857.642505) can0 0000006A#4B25FFFF00000000
(1711383857.692919) can0 00000065#1A1DFF000000FF0B
(1711383857.692970) can0 00000066#FF8213000000FF03
(1711383857.692991) can0 00000067#FFFF00000000000F
(1711383857.693010) can0 00000068#C90BBE0B770B5C0B
(1711383857.693028) can0 00000069#9909FFFF00000008
(1711383857.693053) can0 0000006A#3D25FFFF00000001
(1711383857.743483) can0 00000065#4C1DFF000000FF0C
(1711383857.743527) can0 00000066#FFC613000000FF04
(1711383857.743547) can0 00000067#FFFF000000000000
(1711383857.743565) can0 00000068#440BAD0B070C9C0B
(1711383857.743581) can0 00000069#A709FFFF00000009
(1711383857.743599) can0 0000006A#3B25FFFF00000002
(1711383857.793852) can0 00000065#7E1DFF000000FF0D
(1711383857.793891) can0 00000066#FF6513000000FF05
(1711383857.793912) can0 00000067#FFFF000000000001
(1711383857.793929) can0 00000068#9B0B9F0BC60BE40B
(1711383857.793946) can0 00000069#B809FFFF0000000A
(1711383857.793963) can0 0000006A#3925FFFF00000003
(1711383857.844438) can0 00000065#B01DFF000000FF0E
(1711383857.844492) can0 00000066#FF8613000000FF06
(1711383857.844515) can0 00000067#FFFF000000000002
(1711383857.844536) can0 00000068#840B6C0BA50BDE0B
(1711383857.844557) can0 00000069#C709FFFF0000000B
(1711383857.844576) can0 0000006A#3625FFFF00000004
(1711383857.894879) can0 00000065#E21DFF000000FF0F
(1711383857.894919) can0 00000066#FF5013000000FF07
(1711383857.894938) can0 00000067#FFFF000000000003
(1711383857.894955) can0 00000068#4D0B560BA90B0B0C
(1711383857.894970) can0 00000069#D409FFFF0000000C
(1711383857.894985) can0 0000006A#2E25FFFF00000005
(1711383857.945403) can0 00000065#141EFF000000FF00
(1711383857.945445) can0 00000066#FF7813000000FF08
(1711383857.945464) can0 00000067#FFFF000000000004
(1711383857.945481) can0 00000068#5D0BD80B4E0BDE0B
(1711383857.945496) can0 00000069#E109FFFF0000000D
(1711383857.945512) can0 0000006A#2525FFFF00000006
(1711383857.995930) can0 00000065#461EFF000000FF01
(1711383857.995975) can0 00000066#FF8713000000FF09
(1711383857.995994) can0 00000067#FFFF000000000005
(1711383857.996012) can0 00000068#710BAE0BD60B080C
(1711383857.996030) can0 00000069#EB09FFFF0000000E
(1711383857.996047) can0 0000006A#2525FFFF00000007
(1711383858.046506) can0 00000065#781EFF000000FF02
(1711383858.046556) can0 00000066#FFE113000000FF0A
(1711383858.046577) can0 00000067#FFFF000000000006
(1711383858.046595) can0 00000068#F10BC40BF30B930B
(1711383858.046613) can0 00000069#FE09FFFF0000000F
(1711383858.046631) can0 0000006A#1925FFFF00000008
(1711383858.097045) can0 00000065#AA1EFF000000FF03
(1711383858.097096) can0 00000066#FFD813000000FF0B
(1711383858.097118) can0 00000067#FFFF000000000007
(1711383858.097142) can0 00000068#FE0B850BFE0B910B
(1711383858.097161) can0 00000069#090AFFFF00000000
(1711383858.097182) can0 0000006A#1425FFFF00000009
(1711383858.147610) can0 00000065#DC1EFF000000FF04
(1711383858.147654) can0 00000066#FF8913000000FF0C
(1711383858.147674) can0 00000067#FFFF000000000008
(1711383858.147691) can0 00000068#AF0BDB0B890BCE0B
(1711383858.147707) can0 00000069#1B0AFFFF00000001
(1711383858.147725) can0 0000006A#1025FFFF0000000A
(1711383858.198029) can0 00000065#0E1FFF000000FF05
(1711383858.198073) can0 00000066#FF5613000000FF0D
(1711383858.198094) can0 00000067#FFFF000000000009
(1711383858.198110) can0 00000068#500B840B4F0B820B
(1711383858.198127) can0 00000069#270AFFFF00000002
(1711383858.198143) can0 0000006A#0C25FFFF0000000B
(1711383858.248569) can0 00000065#401FFF000000FF06
(1711383858.248610) can0 00000066#FF6F13000000FF0E
(1711383858.248630) can0 00000067#FFFF00000000000A
(1711383858.248647) can0 00000068#570BBC0BC30BEF0B
(1711383858.248663) can0 00000069#3A0AFFFF00000003
(1711383858.248678) can0 0000006A#0725FFFF0000000C
(1711383858.299104) can0 00000065#721FFF000000FF07
(1711383858.299147) can0 00000066#FF5313000000FF0F
(1711383858.299164) can0 00000067#FFFF00000000000B
(1711383858.299180) can0 00000068#0E0C840B560BD10B
(1711383858.299197) can0 00000069#4C0AFFFF00000004
(1711383858.299213) can0 0000006A#0125FFFF0000000D
(1711383858.349571) can0 00000065#A41FFF000000FF08
(1711383858.349610) can0 00000066#FFCE13000000FF00
(1711383858.349664) can0 00000067#FFFF00000000000C
(1711383858.349683) can0 00000068#A00BDB0BA30B530B
(1711383858.349699) can0 00000069#580AFFFF00000005
(1711383858.349715) can0 0000006A#EF24FFFF0000000E
(1711383858.400134) can0 00000065#D61FFF000000FF09
(1711383858.400175) can0 00000066#FF7D13000000FF01
(1711383858.400194) can0 00000067#FFFF00000000000D
(1711383858.400211) can0 00000068#4F0B890BAA0BB30B
(1711383858.400228) can0 00000069#640AFFFF00000006
(1711383858.400244) can0 0000006A#E824FFFF0000000F
(1711383858.450680) can0 00000065#0820FF000000FF0A
(1711383858.450724) can0 00000066#FFB113000000FF02
(1711383858.450742) can0 00000067#FFFF00000000000E
(1711383858.450758) can0 00000068#DC0B720B4E0B5A0B
(1711383858.450774) can0 00000069#6F0AFFFF00000007
(1711383858.450791) can0 0000006A#D824FFFF00000000
(1711383858.501094) can0 00000065#3A20FF000000FF0B
(1711383858.501133) can0 00000066#FF9113000000FF03
(1711383858.501151) can0 00000067#FFFF00000000000F
(1711383858.501168) can0 00000068#5E0BD20B580B450B
(1711383858.501183) can0 00000069#7D0AFFFF00000008
(1711383858.501199) can0 0000006A#CF24FFFF00000001
(1711383858.551603) can0 00000065#6C20FF000000FF0C
(1711383858.551647) can0 00000066#FF6313000000FF04
(1711383858.551670) can0 00000067#FFFF000000000000
(1711383858.551692) can0 00000068#F40B0C0C560BD20B
(1711383858.551713) can0 00000069#870AFFFF00000009
(1711383858.551736) can0 0000006A#CA24FFFF00000002
(1711383858.602100) can0 00000065#9E20FF000000FF0D
(1711383858.602141) can0 00000066#FF6C13000000FF05
(1711383858.602160) can0 00000067#FFFF000000000001
(1711383858.602177) can0 00000068#9E0B860B980BEC0B
(1711383858.602194) can0 00000069#990AFFFF0000000A
(1711383858.602210) can0 0000006A#BB24FFFF00000003
(1711383858.652624) can0 00000065#D020FF000000FF0E
(1711383858.652667) can0 00000066#FF7313000000FF06
(1711383858.652686) can0 00000067#FFFF000000000002
(1711383858.652702) can0 00000068#610B0F0C7C0BCD0B
(1711383858.652719) can0 00000069#A20AFFFF0000000B
(1711383858.652735) can0 0000006A#B724FFFF00000004
(1711383858.703155) can0 00000065#0221FF000000FF0F
(1711383858.703195) can0 00000066#FF6313000000FF07
(1711383858.703213) can0 00000067#FFFF000000000003
(1711383858.703229) can0 00000068#A00B450B9B0B690B
(1711383858.703245) can0 00000069#B30AFFFF0000000C
(1711383858.703261) can0 0000006A#B024FFFF00000005
(1711383858.753721) can0 00000065#3421FF000000FF00
(1711383858.753766) can0 00000066#FF5513000000FF08
(1711383858.753786) can0 00000067#FFFF000000000004
(1711383858.753815) can0 00000068#9D0BD50B6E0BE00B
(1711383858.753842) can0 00000069#C20AFFFF0000000D
(1711383858.753860) can0 0000006A#A524FFFF00000006
(1711383858.804268) can0 00000065#6621FF000000FF01
(1711383858.804321) can0 00000066#FFAF13000000FF09
(1711383858.804346) can0 00000067#FFFF000000000005
(1711383858.804363) can0 00000068#430B4E0B630BA40B
(1711383858.804380) can0 00000069#D20AFFFF0000000E
(1711383858.804396) can0 0000006A#A224FFFF00000007
(1711383858.854700) can0 00000065#9821FF000000FF02
(1711383858.854742) can0 00000066#FFB113000000FF0A
(1711383858.854761) can0 00000067#FFFF000000000006
(1711383858.854778) can0 00000068#750BDD0B680B5F0B
(1711383858.854794) can0 00000069#DE0AFFFF0000000F
(1711383858.854810) can0 0000006A#9C24FFFF00000008
(1711383858.905218) can0 00000065#CA21FF000000FF03
(1711383858.905260) can0 00000066#FF2E13000000FF0B
(1711383858.905279) can0 00000067#FFFF000000000007
(1711383858.905296) can0 00000068#BC0BE90BC80B7B0B
(1711383858.905310) can0 00000069#EA0AFFFF00000000
(1711383858.905326) can0 0000006A#8D24FFFF00000009
(1711383858.955725) can0 00000065#FC21FF000000FF04
(1711383858.955765) can0 00000066#FF6E13000000FF0C
(1711383858.955784) can0 00000067#FFFF000000000008
(1711383858.955800) can0 00000068#F60B690B4D0B8F0B
(1711383858.955816) can0 00000069#F50AFFFF00000001
(1711383858.955831) can0 0000006A#8024FFFF0000000A
(1711383859.006099) can0 00000065#2E22FF000000FF05
(1711383859.006143) can0 00000066#FFDA13000000FF0D
(1711383859.006161) can0 00000067#FFFF000000000009
(1711383859.006177) can0 00000068#600BC90B480B010C
(1711383859.006193) can0 00000069#FE0AFFFF00000002
(1711383859.006209) can0 0000006A#7524FFFF0000000B
(1711383859.056638) can0 00000065#6022FF000000FF06
(1711383859.056681) can0 00000066#FF6813000000FF0E
(1711383859.056700) can0 00000067#FFFF00000000000A
(1711383859.056716) can0 00000068#C10BB60B820B040C
(1711383859.056732) can0 00000069#0C0BFFFF00000003
(1711383859.056749) can0 0000006A#7424FFFF0000000C
(1711383859.107143) can0 00000065#9222FF000000FF07
(1711383859.107186) can0 00000066#FFB813000000FF0F
(1711383859.107204) can0 00000067#FFFF00000000000B
(1711383859.107221) can0 00000068#420BEF0BB20B900B
(1711383859.107236) can0 00000069#1D0BFFFF00000004
(1711383859.107253) can0 0000006A#6524FFFF0000000D
(1711383859.157728) can0 00000065#C422FF000000FF08
(1711383859.157774) can0 00000066#FF4913000000FF00
(1711383859.157794) can0 00000067#FFFF00000000000C
(1711383859.157813) can0 00000068#790BFE0BD10BB20B
(1711383859.157829) can0 00000069#2C0BFFFF00000005
(1711383859.157846) can0 0000006A#5524FFFF0000000E
(1711383859.208273) can0 00000065#F622FF000000FF09
(1711383859.208317) can0 00000066#FF8113000000FF01
(1711383859.208335) can0 00000067#FFFF00000000000D
(1711383859.208350) can0 00000068#B50B080C8F0B920B
(1711383859.208366) can0 00000069#350BFFFF00000006
(1711383859.208382) can0 0000006A#4924FFFF0000000F
(1711383859.258801) can0 00000065#2823FF000000FF0A
(1711383859.258844) can0 00000066#FF6B13000000FF02
(1711383859.258861) can0 00000067#FFFF00000000000E
(1711383859.258877) can0 00000068#FB0B7E0BD50BB00B
(1711383859.258891) can0 00000069#3D0BFFFF00000007
(1711383859.258906) can0 0000006A#3E24FFFF00000000
(1711383859.309330) can0 00000065#5A23FF000000FF0B
(1711383859.309373) can0 00000066#FFC913000000FF03
(1711383859.309392) can0 00000067#FFFF00000000000F
(1711383859.309408) can0 00000068#6B0BCF0B700BE90B
(1711383859.309425) can0 00000069#4A0BFFFF00000008
(1711383859.309439) can0 0000006A#3924FFFF00000001
(1711383859.359910) can0 00000065#8C23FF000000FF0C
(1711383859.359962) can0 00000066#FF3313000000FF04
(1711383859.359984) can0 00000067#FFFF000000000000
(1711383859.360003) can0 00000068#4A0BE80B900B4C0B
(1711383859.360021) can0 00000069#530BFFFF00000009
(1711383859.360039) can0 0000006A#2B24FFFF00000002
(1711383859.410382) can0 00000065#BE23FF000000FF0D
(1711383859.410438) can0 00000066#FF9E13000000FF05
(1711383859.410466) can0 00000067#FFFF000000000001
(1711383859.410492) can0 00000068#E80BC20B580B110C
(1711383859.410511) can0 00000069#610BFFFF0000000A
(1711383859.410529) can0 0000006A#1C24FFFF00000003
(1711383859.460806) can0 00000065#F023FF000000FF0E
(1711383859.460821) can0 00000066#FFE013000000FF06
(1711383859.460826) can0 00000067#FFFF000000000002
(1711383859.460831) can0 00000068#FB0BCA0B640B0D0C
(1711383859.460836) can0 00000069#6B0BFFFF0000000B
(1711383859.460841) can0 0000006A#1024FFFF00000004
(1711383859.511194) can0 00000065#2224FF000000FF0F
(1711383859.511250) can0 00000066#FF6313000000FF07
(1711383859.511270) can0 00000067#FFFF000000000003
(1711383859.511289) can0 00000068#B80B8A0B990B420B
(1711383859.511306) can0 00000069#730BFFFF0000000C
(1711383859.511324) can0 0000006A#0F24FFFF00000005
(1711383859.561794) can0 00000065#5424FF000000FF00
(1711383859.561836) can0 00000066#FFC213000000FF08
(1711383859.561855) can0 00000067#FFFF000000000004
(1711383859.561873) can0 00000068#A90B850B6C0B520B
(1711383859.561888) can0 00000069#7C0BFFFF0000000D
(1711383859.561905) can0 0000006A#0424FFFF00000006
(1711383859.612320) can0 00000065#8624FF000000FF01
(1711383859.612366) can0 00000066#FF4213000000FF09
(1711383859.612386) can0 00000067#FFFF000000000005
(1711383859.612405) can0 00000068#CD0B5C0B610BFC0B
(1711383859.612422) can0 00000069#880BFFFF0000000E
(1711383859.612439) can0 0000006A#F723FFFF00000007
(1711383859.662860) can0 00000065#B824FF000000FF02
(1711383859.662904) can0 00000066#FFA413000000FF0A
(1711383859.662923) can0 00000067#FFFF000000000006
(1711383859.662939) can0 00000068#9C0B820B090CAC0B
(1711383859.662956) can0 00000069#950BFFFF0000000F
(1711383859.662972) can0 0000006A#F423FFFF00000008
(1711383859.713349) can0 00000065#EA24FF000000FF03
(1711383859.713395) can0 00000066#FF3913000000FF0B
(1711383859.713414) can0 00000067#FFFF000000000007
(1711383859.713430) can0 00000068#F70B550BA80B8A0B
(1711383859.713445) can0 00000069#A60BFFFF00000000
(1711383859.713459) can0 0000006A#E123FFFF00000009
(1711383859.763863) can0 00000065#1C25FF000000FF04
(1711383859.763906) can0 00000066#FF7213000000FF0C
(1711383859.763926) can0 00000067#FFFF000000000008
(1711383859.763942) can0 00000068#870B890B790B510B
(1711383859.763957) can0 00000069#AF0BFFFF00000001
(1711383859.763973) can0 0000006A#CF23FFFF0000000A
(1711383859.814400) can0 00000065#4E25FF000000FF05
(1711383859.814440) can0 00000066#FFA813000000FF0D
(1711383859.814459) can0 00000067#FFFF000000000009
(1711383859.814474) can0 00000068#B20B950BEB0BC50B
(1711383859.814489) can0 00000069#BD0BFFFF00000002
(1711383859.814504) can0 0000006A#C323FFFF0000000B
(1711383859.864808) can0 00000065#8025FF000000FF06
(1711383859.864846) can0 00000066#FF9F13000000FF0E
(1711383859.864863) can0 00000067#FFFF00000000000A
(1711383859.864878) can0 00000068#5C0BF90B800BC30B
(1711383859.864892) can0 00000069#C60BFFFF00000003
(1711383859.864907) can0 0000006A#B123FFFF0000000C
(1711383859.915277) can0 00000065#B225FF000000FF07
(1711383859.915318) can0 00000066#FF7C13000000FF0F
(1711383859.915339) can0 00000067#FFFF00000000000B
(1711383859.915355) can0 00000068#BD0B400B770B070C
(1711383859.915369) can0 00000069#CE0BFFFF00000004
(1711383859.915384) can0 0000006A#AB23FFFF0000000D
(1711383859.965829) can0 00000065#E425FF000000FF08
(1711383859.965867) can0 00000066#FF6213000000FF00
(1711383859.965886) can0 00000067#FFFF00000000000C
(1711383859.965904) can0 00000068#AA0B110CE80BEF0B
(1711383859.965919) can0 00000069#D70BFFFF00000005
(1711383859.965935) can0 0000006A#A823FFFF0000000E
(1711383860.016368) can0 00000065#1626FF000000FF09
(1711383860.016411) can0 00000066#FF3613000000FF01
(1711383860.016429) can0 00000067#FFFF00000000000D
(1711383860.016444) can0 00000068#CF0BD40BED0B5D0B
(1711383860.016459) can0 00000069#E00BFFFF00000006
(1711383860.016477) can0 0000006A#A823FFFF0000000F
(1711383860.066898) can0 00000065#4826FF000000FF0A
(1711383860.066941) can0 00000066#FF8F13000000FF02
(1711383860.066959) can0 00000067#FFFF00000000000E
(1711383860.066975) can0 00000068#970B6A0B510BC70B
(1711383860.066991) can0 00000069#EA0BFFFF00000007
(1711383860.067005) can0 0000006A#9C23FFFF00000000
(1711383860.117423) can0 00000065#7A26FF000000FF0B
(1711383860.117464) can0 00000066#FF5113000000FF03
(1711383860.117483) can0 00000067#FFFF00000000000F
(1711383860.117499) can0 00000068#0D0CE20B8A0B400B
(1711383860.117515) can0 00000069#F20BFFFF00000008
(1711383860.117530) can0 0000006A#9523FFFF00000001
(1711383860.167917) can0 00000065#AC26FF000000FF0C
(1711383860.167959) can0 00000066#FF5D13000000FF04
(1711383860.167978) can0 00000067#FFFF000000000000
(1711383860.167994) can0 00000068#990B870B540B4A0B
(1711383860.168010) can0 00000069#000CFFFF00000009
(1711383860.168024) can0 0000006A#9523FFFF00000002
(1711383860.218447) can0 00000065#DE26FF000000FF0D
(1711383860.218489) can0 00000066#FFD113000000FF05
(1711383860.218508) can0 00000067#FFFF000000000001
(1711383860.218525) can0 00000068#B30B0E0CF50B8B0B
(1711383860.218541) can0 00000069#0E0CFFFF0000000A
(1711383860.218556) can0 0000006A#8423FFFF00000003
(1711383860.268979) can0 00000065#1027FF000000FF0E
(1711383860.269024) can0 00000066#FFB713000000FF06
(1711383860.269043) can0 00000067#FFFF000000000002
(1711383860.269058) can0 00000068#B90B850BB20BB00B
(1711383860.269074) can0 00000069#1D0CFFFF0000000B
(1711383860.269091) can0 0000006A#7F23FFFF00000004
(1711383860.319502) can0 00000065#1027FF000000FF0F
(1711383860.319543) can0 00000066#FFA113000000FF07
(1711383860.319563) can0 00000067#FFFF000000000003
(1711383860.319579) can0 00000068#670BB10BF30BD60B
(1711383860.319594) can0 00000069#290CFFFF0000000C
(1711383860.319610) can0 0000006A#7423FFFF00000005
(1711383860.369992) can0 00000065#1027FF000000FF00
(1711383860.370036) can0 00000066#FF9813000000FF08
(1711383860.370054) can0 00000067#FFFF000000000004
(1711383860.370070) can0 00000068#940B8E0B960B770B
(1711383860.370086) can0 00000069#2F0CFFFF0000000D
(1711383860.370103) can0 0000006A#7323FFFF00000006
(1711383860.420534) can0 00000065#1027FF000000FF01
(1711383860.420579) can0 00000066#FF7513000000FF09
(1711383860.420598) can0 00000067#FFFF000000000005
(1711383860.420614) can0 00000068#C00B6B0B410B740B
(1711383860.420630) can0 00000069#360CFFFF0000000E
(1711383860.420645) can0 0000006A#7323FFFF00000007
(1711383860.470897) can0 00000065#1027FF000000FF02
(1711383860.470913) can0 00000066#FF4113000000FF0A
(1711383860.470918) can0 00000067#FFFF000000000006
(1711383860.470923) can0 00000068#D60B990BCD0BCE0B
(1711383860.470928) can0 00000069#3E0CFFFF0000000F
(1711383860.470932) can0 0000006A#6A23FFFF00000008
(1711383860.521347) can0 00000065#1027FF000000FF03
(1711383860.521390) can0 00000066#FFAF13000000FF0B
(1711383860.521408) can0 00000067#FFFF000000000007
(1711383860.521427) can0 00000068#FB0B7C0B7E0BDF0B
(1711383860.521443) can0 00000069#4B0CFFFF00000000
(1711383860.521460) can0 0000006A#5D23FFFF00000009
(1711383860.571860) can0 00000065#1027FF000000FF04
(1711383860.571903) can0 00000066#FFD113000000FF0C
(1711383860.571922) can0 00000067#FFFF000000000008
(1711383860.571938) can0 00000068#E80B5B0BAB0B7A0B
(1711383860.571954) can0 00000069#560CFFFF00000001
(1711383860.571972) can0 0000006A#5023FFFF0000000A
(1711383860.622360) can0 00000065#1027FF000000FF05
(1711383860.622405) can0 00000066#FF4213000000FF0D
(1711383860.622425) can0 00000067#FFFF000000000009
(1711383860.622441) can0 00000068#BD0B650B760BE20B
(1711383860.622458) can0 00000069#650CFFFF00000002
(1711383860.622474) can0 0000006A#4423FFFF0000000B
(1711383860.672901) can0 00000065#1027FF000000FF06
(1711383860.672945) can0 00000066#FF9F13000000FF0E
(1711383860.672964) can0 00000067#FFFF00000000000A
(1711383860.672980) can0 00000068#7B0BE30BE70BD30B
(1711383860.672995) can0 00000069#730CFFFF00000003
(1711383860.673012) can0 0000006A#3123FFFF0000000C
(1711383860.723398) can0 00000065#1027FF000000FF07
(1711383860.723441) can0 00000066#FF9A13000000FF0F
(1711383860.723460) can0 00000067#FFFF00000000000B
(1711383860.723481) can0 00000068#5E0BCD0B600BBA0B
(1711383860.723502) can0 00000069#7B0CFFFF00000004
(1711383860.723525) can0 0000006A#2823FFFF0000000D
(1711383860.774017) can0 00000065#1027FF000000FF08
(1711383860.774056) can0 00000066#FF8713000000FF00
(1711383860.774073) can0 00000067#FFFF00000000000C
(1711383860.774087) can0 00000068#F90B870B8A0B890B
(1711383860.774102) can0 00000069#840CFFFF00000005
(1711383860.774116) can0 0000006A#2423FFFF0000000E
(1711383860.824540) can0 00000065#1027FF000000FF09
(1711383860.824581) can0 00000066#FF9313000000FF01
(1711383860.824599) can0 00000067#FFFF00000000000D
(1711383860.824615) can0 00000068#720B6B0B770B430B
(1711383860.824630) can0 00000069#930CFFFF00000006
(1711383860.824645) can0 0000006A#1F23FFFF0000000F
(1711383860.875029) can0 00000065#1027FF000000FF0A
(1711383860.875077) can0 00000066#FF4E13000000FF02
(1711383860.875097) can0 00000067#FFFF00000000000E
(1711383860.875115) can0 00000068#5B0B9D0BB70B850B
(1711383860.875132) can0 00000069#990CFFFF00000007
(1711383860.875151) can0 0000006A#0F23FFFF00000000
(1711383860.925431) can0 00000065#1027FF000000FF0B
(1711383860.925466) can0 00000066#FF7C13000000FF03
(1711383860.925483) can0 00000067#FFFF00000000000F
(1711383860.925498) can0 00000068#0E0CAE0B670BD70B
(1711383860.925513) can0 00000069#9F0CFFFF00000008
(1711383860.925527) can0 0000006A#FD22FFFF00000001
(1711383860.975891) can0 00000065#1027FF000000FF0C
(1711383860.975934) can0 00000066#FFD113000000FF04
(1711383860.975951) can0 00000067#FFFF000000000000
(1711383860.975966) can0 00000068#A50B8F0BAA0B830B
(1711383860.975983) can0 00000069#A80CFFFF00000009
(1711383860.975998) can0 0000006A#EE22FFFF00000002
(1711383861.026285) can0 00000065#1027FF000000FF0D
(1711383861.026325) can0 00000066#FFD413000000FF05
(1711383861.026344) can0 00000067#FFFF000000000001
(1711383861.026359) can0 00000068#FC0BEC0BD10BF20B
(1711383861.026374) can0 00000069#B20CFFFF0000000A
(1711383861.026389) can0 0000006A#EA22FFFF00000003
(1711383861.076689) can0 00000065#1027FF000000FF0E
(1711383861.076741) can0 00000066#FFAC13000000FF06
(1711383861.076762) can0 00000067#FFFF000000000002
(1711383861.076778) can0 00000068#100C8E0B090CE00B
(1711383861.076793) can0 00000069#BD0CFFFF0000000B
(1711383861.076808) can0 0000006A#E322FFFF00000004
(1711383861.127082) can0 00000065#1027FF000000FF0F
(1711383861.127123) can0 00000066#FFB913000000FF07
(1711383861.127140) can0 00000067#FFFF000000000003
(1711383861.127156) can0 00000068#E70BE70B790BF20B
(1711383861.127172) can0 00000069#C80CFFFF0000000C
(1711383861.127187) can0 0000006A#D722FFFF00000005
(1711383861.177599) can0 00000065#1027FF000000FF00
(1711383861.177676) can0 00000066#FFE013000000FF08
(1711383861.177695) can0 00000067#FFFF000000000004
(1711383861.177712) can0 00000068#C90B050CA70B730B
(1711383861.177728) can0 00000069#D10CFFFF0000000D
(1711383861.177744) can0 0000006A#CE22FFFF00000006
(1711383861.228152) can0 00000065#1027FF000000FF01
(1711383861.228194) can0 00000066#FF3413000000FF09
(1711383861.228213) can0 00000067#FFFF000000000005
(1711383861.228229) can0 00000068#BE0BE50BEE0BA70B
(1711383861.228244) can0 00000069#DA0CFFFF0000000E
(1711383861.228258) can0 0000006A#C622FFFF00000007
(1711383861.278679) can0 00000065#1027FF000000FF02
(1711383861.278721) can0 00000066#FFD713000000FF0A
(1711383861.278740) can0 00000067#FFFF000000000006
(1711383861.278756) can0 00000068#E10B940BB70B410B
(1711383861.278771) can0 00000069#E10CFFFF0000000F
(1711383861.278786) can0 0000006A#BC22FFFF00000008
(1711383861.329169) can0 00000065#1027FF000000FF03
(1711383861.329214) can0 00000066#FF3513000000FF0B
(1711383861.329239) can0 00000067#FFFF000000000007
(1711383861.329261) can0 00000068#9F0BE90BB90B570B
(1711383861.329284) can0 00000069#E60CFFFF00000000
(1711383861.329305) can0 0000006A#B522FFFF00000009
(1711383861.379718) can0 00000065#1027FF000000FF04
(1711383861.379761) can0 00000066#FF3113000000FF0C
(1711383861.379779) can0 00000067#FFFF000000000008
(1711383861.379796) can0 00000068#B30BE60B7B0BFE0B
(1711383861.379810) can0 00000069#F20CFFFF00000001
(1711383861.379825) can0 0000006A#A122FFFF0000000A
(1711383861.430089) can0 00000065#1027FF000000FF05
(1711383861.430129) can0 00000066#FF5C13000000FF0D
(1711383861.430147) can0 00000067#FFFF000000000009
(1711383861.430162) can0 00000068#540BD80B680BD00B
(1711383861.430178) can0 00000069#FA0CFFFF00000002
(1711383861.430193) can0 0000006A#9C22FFFF0000000B
(1711383861.480559) can0 00000065#1027FF000000FF06
(1711383861.480601) can0 00000066#FF8413000000FF0E
(1711383861.480621) can0 00000067#FFFF00000000000A
(1711383861.480637) can0 00000068#E30BCE0BE70BC10B
(1711383861.480653) can0 00000069#000DFFFF00000003
(1711383861.480668) can0 0000006A#8C22FFFF0000000C
(1711383861.531052) can0 00000065#1027FF000000FF07
(1711383861.531093) can0 00000066#FF4013000000FF0F
(1711383861.531110) can0 00000067#FFFF00000000000B
(1711383861.531126) can0 00000068#0C0CF40B9D0BF20B
(1711383861.531140) can0 00000069#050DFFFF00000004
(1711383861.531155) can0 0000006A#7A22FFFF0000000D
(1711383861.581566) can0 00000065#1027FF000000FF08
(1711383861.581607) can0 00000066#FF7013000000FF00
(1711383861.581652) can0 00000067#FFFF00000000000C
(1711383861.581673) can0 00000068#770BF90B4D0B800B
(1711383861.581689) can0 00000069#100DFFFF00000005
(1711383861.581706) can0 0000006A#6C22FFFF0000000E
(1711383861.632121) can0 00000065#1027FF000000FF09
(1711383861.632165) can0 00000066#FFCC13000000FF01
(1711383861.632184) can0 00000067#FFFF00000000000D
(1711383861.632201) can0 00000068#110C880B520BF20B
(1711383861.632216) can0 00000069#1C0DFFFF00000006
(1711383861.632231) can0 0000006A#6822FFFF0000000F
(1711383861.682670) can0 00000065#1027FF000000FF0A
(1711383861.682716) can0 00000066#FFB313000000FF02
(1711383861.682737) can0 00000067#FFFF00000000000E
(1711383861.682755) can0 00000068#DB0B530BD20BB60B
(1711383861.682772) can0 00000069#290DFFFF00000007
(1711383861.682789) can0 0000006A#5F22FFFF00000000
(1711383861.733211) can0 00000065#1027FF000000FF0B
(1711383861.733264) can0 00000066#FFD013000000FF03
(1711383861.733287) can0 00000067#FFFF00000000000F
(1711383861.733305) can0 00000068#B40BEB0B5F0B850B
(1711383861.733324) can0 00000069#2E0DFFFF00000008
(1711383861.733343) can0 0000006A#4F22FFFF00000001
(1711383861.783722) can0 00000065#1027FF000000FF0C
(1711383861.783766) can0 00000066#FF3E13000000FF04
(1711383861.783785) can0 00000067#FFFF000000000000
(1711383861.783802) can0 00000068#0E0CBB0B420B690B
(1711383861.783819) can0 00000069#330DFFFF00000009
(1711383861.783835) can0 0000006A#4722FFFF00000002
(1711383861.834131) can0 00000065#1027FF000000FF0D
(1711383861.834178) can0 00000066#FF5D13000000FF05
(1711383861.834199) can0 00000067#FFFF000000000001
(1711383861.834216) can0 00000068#B80BF10BB20B8F0B
(1711383861.834233) can0 00000069#400DFFFF0000000A
(1711383861.834250) can0 0000006A#4122FFFF00000003
(1711383861.884636) can0 00000065#1027FF000000FF0E
(1711383861.884677) can0 00000066#FFCD13000000FF06
(1711383861.884695) can0 00000067#FFFF000000000002
(1711383861.884711) can0 00000068#D60BCF0BC60BE00B
(1711383861.884729) can0 00000069#4D0DFFFF0000000B
(1711383861.884745) can0 0000006A#4122FFFF00000004
(1711383861.935123) can0 00000065#1027FF000000FF0F
(1711383861.935165) can0 00000066#FFE113000000FF07
(1711383861.935183) can0 00000067#FFFF000000000003
(1711383861.935200) can0 00000068#A10B710BEA0B9A0B
(1711383861.935215) can0 00000069#560DFFFF0000000C
(1711383861.935230) can0 0000006A#2F22FFFF00000005
(1711383861.985750) can0 00000065#1027FF000000FF00
(1711383861.985791) can0 00000066#FF9E13000000FF08
(1711383861.985810) can0 00000067#FFFF000000000004
(1711383861.985825) can0 00000068#AC0B9A0B4E0B860B
(1711383861.985846) can0 00000069#590DFFFF0000000D
(1711383861.985861) can0 0000006A#2722FFFF00000006
(1711383862.036313) can0 00000065#1027FF000000FF01
(1711383862.036361) can0 00000066#FFD913000000FF09
(1711383862.036381) can0 00000067#FFFF000000000005
(1711383862.036399) can0 00000068#790B640B450B580B
(1711383862.036415) can0 00000069#620DFFFF0000000E
(1711383862.036431) can0 0000006A#2522FFFF00000007
(1711383862.086717) can0 00000065#1027FF000000FF02
(1711383862.086755) can0 00000066#FFBC13000000FF0A
(1711383862.086772) can0 00000067#FFFF000000000006
(1711383862.086788) can0 00000068#7D0BBA0BAA0BEF0B
(1711383862.086803) can0 00000069#6D0DFFFF0000000F
(1711383862.086818) can0 0000006A#2122FFFF00000008
(1711383862.137189) can0 00000065#1027FF000000FF03
(1711383862.137231) can0 00000066#FF6413000000FF0B
(1711383862.137251) can0 00000067#FFFF000000000007
(1711383862.137268) can0 00000068#4B0B960BAB0B470B
(1711383862.137283) can0 00000069#730DFFFF00000000
(1711383862.137300) can0 0000006A#1C22FFFF00000009
(1711383862.187713) can0 00000065#1027FF000000FF04
(1711383862.187756) can0 00000066#FFC313000000FF0C
(1711383862.187773) can0 00000067#FFFF000000000008
(1711383862.187789) can0 00000068#950BCA0B9C0B5C0B
(1711383862.187806) can0 00000069#7C0DFFFF00000001
(1711383862.187821) can0 0000006A#1C22FFFF0000000A
(1711383862.238091) can0 00000065#1027FF000000FF05
(1711383862.238133) can0 00000066#FF9F13000000FF0D
(1711383862.238151) can0 00000067#FFFF000000000009
(1711383862.238167) can0 00000068#590BB20BE50B060C
(1711383862.238183) can0 00000069#840DFFFF00000002
(1711383862.238199) can0 0000006A#1822FFFF0000000B
(1711383862.288507) can0 00000065#1027FF000000FF06
(1711383862.288544) can0 00000066#FFA313000000FF0E
(1711383862.288561) can0 00000067#FFFF00000000000A
(1711383862.288578) can0 00000068#F00B620BD30BF40B
(1711383862.288593) can0 00000069#8B0DFFFF00000003
(1711383862.288609) can0 0000006A#1622FFFF0000000C
(1711383862.338915) can0 00000065#1027FF000000FF07
(1711383862.338968) can0 00000066#FF5113000000FF0F
(1711383862.338996) can0 00000067#FFFF00000000000B
(1711383862.339015) can0 00000068#CC0B0F0CEA0BA30B
(1711383862.339033) can0 00000069#960DFFFF00000004
(1711383862.339050) can0 0000006A#0422FFFF0000000D
(1711383862.389324) can0 00000065#1027FF000000FF08
(1711383862.389361) can0 00000066#FFA513000000FF00
(1711383862.389379) can0 00000067#FFFF00000000000C
(1711383862.389394) can0 00000068#510B640B950BA20B
(1711383862.389408) can0 00000069#9B0DFFFF00000005
(1711383862.389423) can0 0000006A#FA21FFFF0000000E
(1711383862.439831) can0 00000065#1027FF000000FF09
(1711383862.439872) can0 00000066#FF9613000000FF01
(1711383862.439892) can0 00000067#FFFF00000000000D
(1711383862.439911) can0 00000068#C10B8E0BE40BFE0B
(1711383862.439926) can0 00000069#9F0DFFFF00000006
(1711383862.439942) can0 0000006A#F621FFFF0000000F
(1711383862.490267) can0 00000065#1027FF000000FF0A
(1711383862.490305) can0 00000066#FFAA13000000FF02
(1711383862.490323) can0 00000067#FFFF00000000000E
(1711383862.490340) can0 00000068#E50BB20BDF0B6C0B
(1711383862.490357) can0 00000069#A30DFFFF00000007
(1711383862.490373) can0 0000006A#E421FFFF00000000
(1711383862.540744) can0 00000065#1027FF000000FF0B
(1711383862.540769) can0 00000066#FFE113000000FF03
(1711383862.540779) can0 00000067#FFFF00000000000F
(1711383862.540788) can0 00000068#E70BA10B4B0BB30B
(1711383862.540797) can0 00000069#AF0DFFFF00000008
(1711383862.540805) can0 0000006A#D521FFFF00000001
(1711383862.591219) can0 00000065#1027FF000000FF0C
(1711383862.591266) can0 00000066#FF5E13000000FF04
(1711383862.591284) can0 00000067#FFFF000000000000
(1711383862.591301) can0 00000068#E30BFB0B410B8C0B
(1711383862.591318) can0 00000069#B70DFFFF00000009
(1711383862.591335) can0 0000006A#D521FFFF00000002
(1711383862.641786) can0 00000065#1027FF000000FF0D
(1711383862.641825) can0 00000066#FFC113000000FF05
(1711383862.641844) can0 00000067#FFFF000000000001
(1711383862.641859) can0 00000068#760BE40B850B9D0B
(1711383862.641875) can0 00000069#BC0DFFFF0000000A
(1711383862.641890) can0 0000006A#CF21FFFF00000003
(1711383862.692291) can0 00000065#1027FF000000FF0E
(1711383862.692333) can0 00000066#FFAB13000000FF06
(1711383862.692351) can0 00000067#FFFF000000000002
(1711383862.692367) can0 00000068#500B8C0B500B4D0B
(1711383862.692382) can0 00000069#C10DFFFF0000000B
(1711383862.692397) can0 0000006A#CC21FFFF00000004
(1711383862.742814) can0 00000065#1027FF000000FF0F
(1711383862.742857) can0 00000066#FF3713000000FF07
(1711383862.742875) can0 00000067#FFFF000000000003
(1711383862.742890) can0 00000068#710B5D0BFF0BBB0B
(1711383862.742905) can0 00000069#C50DFFFF0000000C
(1711383862.742922) can0 0000006A#CB21FFFF00000005
(1711383862.793343) can0 00000065#1027FF000000FF00
(1711383862.793387) can0 00000066#FF8913000000FF08
(1711383862.793406) can0 00000067#FFFF000000000004
(1711383862.793423) can0 00000068#5F0BBB0BCD0B610B
(1711383862.793438) can0 00000069#CD0DFFFF0000000D
(1711383862.793453) can0 0000006A#C721FFFF00000006
(1711383862.843869) can0 00000065#1027FF000000FF01
(1711383862.843912) can0 00000066#FF3213000000FF09
(1711383862.843932) can0 00000067#FFFF000000000005
(1711383862.843949) can0 00000068#E80B080CD00B6D0B
(1711383862.843965) can0 00000069#D30DFFFF0000000E
(1711383862.843980) can0 0000006A#BB21FFFF00000007
(1711383862.894285) can0 00000065#1027FF000000FF02
(1711383862.894333) can0 00000066#FF6413000000FF0A
(1711383862.894358) can0 00000067#FFFF000000000006
(1711383862.894375) can0 00000068#500BB20BB40BD10B
(1711383862.894391) can0 00000069#D80DFFFF0000000F
(1711383862.894406) can0 0000006A#AC21FFFF00000008
(1711383862.944708) can0 00000065#1027FF000000FF03
(1711383862.944748) can0 00000066#FFDB13000000FF0B
(1711383862.944766) can0 00000067#FFFF000000000007
(1711383862.944781) can0 00000068#A40B840BF70BD50B
(1711383862.944796) can0 00000069#DF0DFFFF00000000
(1711383862.944810) can0 0000006A#A621FFFF00000009
(1711383862.995221) can0 00000065#1027FF000000FF04
(1711383862.995264) can0 00000066#FF6313000000FF0C
(1711383862.995283) can0 00000067#FFFF000000000008
(1711383862.995299) can0 00000068#BF0B9D0B4B0B560B
(1711383862.995314) can0 00000069#E40DFFFF00000001
(1711383862.995330) can0 0000006A#9A21FFFF0000000A
(1711383863.045770) can0 00000065#1027FF000000FF05
(1711383863.045809) can0 00000066#FF8B13000000FF0D
(1711383863.045829) can0 00000067#FFFF000000000009
(1711383863.045845) can0 00000068#A70B110C550B710B
(1711383863.045860) can0 00000069#EF0DFFFF00000002
(1711383863.045876) can0 0000006A#9821FFFF0000000B
(1711383863.096249) can0 00000065#1027FF000000FF06
(1711383863.096292) can0 00000066#FF2E13000000FF0E
(1711383863.096311) can0 00000067#FFFF00000000000A
(1711383863.096327) can0 00000068#E60BB00BB40BBC0B
(1711383863.096342) can0 00000069#F80DFFFF00000003
(1711383863.096358) can0 0000006A#9521FFFF0000000C
(1711383863.146753) can0 00000065#1027FF000000FF07
(1711383863.146795) can0 00000066#FFDD13000000FF0F
(1711383863.146815) can0 00000067#FFFF00000000000B
(1711383863.146832) can0 00000068#DE0BFE0BEF0B6B0B
(1711383863.146848) can0 00000069#010EFFFF00000004
(1711383863.146863) can0 0000006A#8A21FFFF0000000D
(1711383863.197219) can0 00000065#1027FF000000FF08
(1711383863.197261) can0 00000066#FF7813000000FF00
(1711383863.197279) can0 00000067#FFFF00000000000C
(1711383863.197295) can0 00000068#4E0BB90BF00BBB0B
(1711383863.197310) can0 00000069#0B0EFFFF00000005
(1711383863.197326) can0 0000006A#7F21FFFF0000000E
(1711383863.247588) can0 00000065#1027FF000000FF09
(1711383863.247628) can0 00000066#FF8B13000000FF01
(1711383863.247647) can0 00000067#FFFF00000000000D
(1711383863.247662) can0 00000068#5D0BE30BD60BFA0B
(1711383863.247677) can0 00000069#0F0EFFFF00000006
(1711383863.247692) can0 0000006A#7B21FFFF0000000F
(1711383863.297990) can0 00000065#1027FF000000FF0A
(1711383863.298032) can0 00000066#FFAB13000000FF02
(1711383863.298050) can0 00000067#FFFF00000000000E
(1711383863.298067) can0 00000068#FD0B820B8A0B790B
(1711383863.298082) can0 00000069#130EFFFF00000007
(1711383863.298098) can0 0000006A#7121FFFF00000000
(1711383863.348471) can0 00000065#1027FF000000FF0B
(1711383863.348514) can0 00000066#FF3013000000FF03
(1711383863.348533) can0 00000067#FFFF00000000000F
(1711383863.348550) can0 00000068#A80B590BF80BFD0B
(1711383863.348568) can0 00000069#1B0EFFFF00000008
(1711383863.348583) can0 0000006A#6F21FFFF00000001
(1711383863.399007) can0 00000065#1027FF000000FF0C
(1711383863.399051) can0 00000066#FFC413000000FF04
(1711383863.399070) can0 00000067#FFFF000000000000
(1711383863.399086) can0 00000068#C70B420BE50B640B
(1711383863.399101) can0 00000069#260EFFFF00000009
(1711383863.399118) can0 0000006A#6A21FFFF00000002
(1711383863.449516) can0 00000065#1027FF000000FF0D
(1711383863.449558) can0 00000066#FF3313000000FF05
(1711383863.449577) can0 00000067#FFFF000000000001
(1711383863.449593) can0 00000068#570B9C0B920B0B0C
(1711383863.449609) can0 00000069#290EFFFF0000000A
(1711383863.449653) can0 0000006A#5721FFFF00000003
(1711383863.500047) can0 00000065#1027FF000000FF0E
(1711383863.500092) can0 00000066#FF9213000000FF06
(1711383863.500110) can0 00000067#FFFF000000000002
(1711383863.500126) can0 00000068#820BC60B720BAB0B
(1711383863.500142) can0 00000069#2C0EFFFF0000000B
(1711383863.500157) can0 0000006A#5721FFFF00000004
(1711383863.550385) can0 00000065#1027FF000000FF0F
(1711383863.550400) can0 00000066#FF7313000000FF07
(1711383863.550406) can0 00000067#FFFF000000000003
(1711383863.550410) can0 00000068#030C610BEE0BC10B
(1711383863.550414) can0 00000069#2F0EFFFF0000000C
(1711383863.550418) can0 0000006A#5521FFFF00000005
(1711383863.600842) can0 00000065#1027FF000000FF00
(1711383863.600885) can0 00000066#FFB013000000FF08
(1711383863.600904) can0 00000067#FFFF000000000004
(1711383863.600919) can0 00000068#F70BEF0B560B6D0B
(1711383863.600935) can0 00000069#360EFFFF0000000D
(1711383863.600951) can0 0000006A#4821FFFF00000006
(1711383863.651265) can0 00000065#1027FF000000FF01
(1711383863.651306) can0 00000066#FF7D13000000FF09
(1711383863.651324) can0 00000067#FFFF000000000005
(1711383863.651339) can0 00000068#A20BC20B5A0B930B
(1711383863.651355) can0 00000069#400EFFFF0000000E
(1711383863.651370) can0 0000006A#3921FFFF00000007
(1711383863.701799) can0 00000065#1027FF000000FF02
(1711383863.701838) can0 00000066#FF4413000000FF0A
(1711383863.701856) can0 00000067#FFFF000000000006
(1711383863.701872) can0 00000068#830B100CE50BA70B
(1711383863.701888) can0 00000069#480EFFFF0000000F
(1711383863.701903) can0 0000006A#3821FFFF00000008
(1711383863.752265) can0 00000065#1027FF000000FF03
(1711383863.752306) can0 00000066#FFC613000000FF0B
(1711383863.752325) can0 00000067#FFFF000000000007
(1711383863.752342) can0 00000068#FC0BAB0B010CA50B
(1711383863.752358) can0 00000069#500EFFFF00000000
(1711383863.752374) can0 0000006A#3721FFFF00000009
(1711383863.802747) can0 00000065#1027FF000000FF04
(1711383863.802792) can0 00000066#FF6113000000FF0C
(1711383863.802810) can0 00000067#FFFF000000000008
(1711383863.802826) can0 00000068#610BE70BE70BCF0B
(1711383863.802843) can0 00000069#570EFFFF00000001
(1711383863.802859) can0 0000006A#3321FFFF0000000A
(1711383863.853214) can0 00000065#1027FF000000FF05
(1711383863.853257) can0 00000066#FF4813000000FF0D
(1711383863.853276) can0 00000067#FFFF000000000009
(1711383863.853293) can0 00000068#6C0BB90BE50B600B
(1711383863.853310) can0 00000069#580EFFFF00000002
(1711383863.853327) can0 0000006A#3121FFFF0000000B
(1711383863.903748) can0 00000065#1027FF000000FF06
(1711383863.903792) can0 00000066#FF6D13000000FF0E
(1711383863.903810) can0 00000067#FFFF00000000000A
(1711383863.903826) can0 00000068#BF0BD30B090C400B
(1711383863.903842) can0 00000069#5E0EFFFF00000003
(1711383863.903858) can0 0000006A#2721FFFF0000000C
(1711383863.954220) can0 00000065#1027FF000000FF07
(1711383863.954270) can0 00000066#FF7013000000FF0F
(1711383863.954294) can0 00000067#FFFF00000000000B
(1711383863.954317) can0 00000068#FA0B4E0B6A0BC10B
(1711383863.954341) can0 00000069#650EFFFF00000004
(1711383863.954365) can0 0000006A#1E21FFFF0000000D
(1711383864.004734) can0 00000065#1027FF000000FF08
(1711383864.004785) can0 00000066#FF3D13000000FF00
(1711383864.004808) can0 00000067#FFFF00000000000C
(1711383864.004831) can0 00000068#410BB70BD70B970B
(1711383864.004854) can0 00000069#680EFFFF00000005
(1711383864.004878) can0 0000006A#1121FFFF0000000E
(1711383864.055293) can0 00000065#1027FF000000FF09
(1711383864.055344) can0 00000066#FF3B13000000FF01
(1711383864.055368) can0 00000067#FFFF00000000000D
(1711383864.055391) can0 00000068#B20BDC0B490B400B
(1711383864.055414) can0 00000069#700EFFFF00000006
(1711383864.055439) can0 0000006A#0021FFFF0000000F
(1711383864.105938) can0 00000065#1027FF000000FF0A
(1711383864.105986) can0 00000066#FF3D13000000FF02
(1711383864.106009) can0 00000067#FFFF00000000000E
(1711383864.106032) can0 00000068#A20BFF0B410B5B0B
(1711383864.106061) can0 00000069#730EFFFF00000007
(1711383864.106086) can0 0000006A#ED20FFFF00000000
(1711383864.156512) can0 00000065#1027FF000000FF0B
(1711383864.156567) can0 00000066#FF7E13000000FF03
(1711383864.156590) can0 00000067#FFFF00000000000F
(1711383864.156612) can0 00000068#6D0B730BFA0BDD0B
(1711383864.156634) can0 00000069#760EFFFF00000008
(1711383864.156658) can0 0000006A#EC20FFFF00000001
(1711383864.207070) can0 00000065#1027FF000000FF0C
(1711383864.207120) can0 00000066#FF6C13000000FF04
(1711383864.207144) can0 00000067#FFFF000000000000
(1711383864.207168) can0 00000068#5D0B690B980BDD0B
(1711383864.207192) can0 00000069#790EFFFF00000009
(1711383864.207215) can0 0000006A#EC20FFFF00000002
(1711383864.257637) can0 00000065#1027FF000000FF0D
(1711383864.257699) can0 00000066#FFAF13000000FF05
(1711383864.257724) can0 00000067#FFFF000000000001
(1711383864.257746) can0 00000068#460BFA0BD40B8A0B
(1711383864.257770) can0 00000069#7C0EFFFF0000000A
(1711383864.257794) can0 0000006A#DF20FFFF00000003
(1711383864.308196) can0 00000065#1027FF000000FF0E
(1711383864.308247) can0 00000066#FFA813000000FF06
(1711383864.308271) can0 00000067#FFFF000000000002
(1711383864.308295) can0 00000068#710B610BBE0BB80B
(1711383864.308320) can0 00000069#7C0EFFFF0000000B
(1711383864.308343) can0 0000006A#D720FFFF00000004
(1711383864.358744) can0 00000065#1027FF000000FF0F
(1711383864.358794) can0 00000066#FF7813000000FF07
(1711383864.358817) can0 00000067#FFFF000000000003
(1711383864.358840) can0 00000068#770B420B0F0C430B
(1711383864.358863) can0 00000069#7D0EFFFF0000000C
(1711383864.358887) can0 0000006A#D320FFFF00000005
(1711383864.409155) can0 00000065#1027FF000000FF00
(1711383864.409204) can0 00000066#FF4013000000FF08
(1711383864.409227) can0 00000067#FFFF000000000004
(1711383864.409250) can0 00000068#D40B880B530B8F0B
(1711383864.409274) can0 00000069#850EFFFF0000000D
(1711383864.409297) can0 0000006A#C120FFFF00000006
(1711383864.459692) can0 00000065#1027FF000000FF01
(1711383864.459743) can0 00000066#FFCB13000000FF09
(1711383864.459766) can0 00000067#FFFF000000000005
(1711383864.459788) can0 00000068#D10B6F0B530BAC0B
(1711383864.459818) can0 00000069#8E0EFFFF0000000E
(1711383864.459842) can0 0000006A#B920FFFF00000007
(1711383864.510114) can0 00000065#1027FF000000FF02
(1711383864.510164) can0 00000066#FFB313000000FF0A
(1711383864.510188) can0 00000067#FFFF000000000006
(1711383864.510211) can0 00000068#870B400B030C990B
(1711383864.510234) can0 00000069#910EFFFF0000000F
(1711383864.510258) can0 0000006A#AF20FFFF00000008
(1711383864.560563) can0 00000065#1027FF000000FF03
(1711383864.560591) can0 00000066#FFB013000000FF0B
(1711383864.560601) can0 00000067#FFFF000000000007
(1711383864.560612) can0 00000068#ED0B5F0B730BD90B
(1711383864.560623) can0 00000069#990EFFFF00000000
(1711383864.560633) can0 0000006A#A620FFFF00000009
(1711383864.611015) can0 00000065#1027FF000000FF04
(1711383864.611062) can0 00000066#FF5613000000FF0C
(1711383864.611084) can0 00000067#FFFF000000000008
(1711383864.611106) can0 00000068#AC0B9F0B860B880B
(1711383864.611128) can0 00000069#9F0EFFFF00000001
(1711383864.611152) can0 0000006A#9920FFFF0000000A
(1711383864.661643) can0 00000065#1027FF000000FF05
(1711383864.661701) can0 00000066#FFB713000000FF0D
(1711383864.661724) can0 00000067#FFFF000000000009
(1711383864.661747) can0 00000068#570BB80BD60B8D0B
(1711383864.661768) can0 00000069#A00EFFFF00000002
(1711383864.661787) can0 0000006A#8820FFFF0000000B
(1711383864.712049) can0 00000065#1027FF000000FF06
(1711383864.712081) can0 00000066#FF8813000000FF0E
(1711383864.712098) can0 00000067#FFFF00000000000A
(1711383864.712112) can0 00000068#B20BF90BAD0B840B
(1711383864.712126) can0 00000069#A10EFFFF00000003
(1711383864.712141) can0 0000006A#8320FFFF0000000C
(1711383864.762571) can0 00000065#1027FF000000FF07
(1711383864.762615) can0 00000066#FF6613000000FF0F
(1711383864.762635) can0 00000067#FFFF00000000000B
(1711383864.762651) can0 00000068#930B980B540BBE0B
(1711383864.762667) can0 00000069#A60EFFFF00000004
(1711383864.762682) can0 0000006A#7320FFFF0000000D
(1711383864.812970) can0 00000065#1027FF000000FF08
(1711383864.813010) can0 00000066#FF4913000000FF00
(1711383864.813028) can0 00000067#FFFF00000000000C
(1711383864.813046) can0 00000068#F00B700BA00BE90B
(1711383864.813062) can0 00000069#AA0EFFFF00000005
(1711383864.813078) can0 0000006A#6C20FFFF0000000E
(1711383864.863487) can0 00000065#1027FF000000FF09
(1711383864.863537) can0 00000066#FF5E13000000FF01
(1711383864.863555) can0 00000067#FFFF00000000000D
(1711383864.863572) can0 00000068#6B0BC90B9F0B550B
(1711383864.863587) can0 00000069#AB0EFFFF00000006
(1711383864.863602) can0 0000006A#6220FFFF0000000F
(1711383864.913819) can0 00000065#1027FF000000FF0A
(1711383864.913856) can0 00000066#FF3113000000FF02
(1711383864.913873) can0 00000067#FFFF00000000000E
(1711383864.913889) can0 00000068#500BDB0B520BC20B
(1711383864.913903) can0 00000069#B00EFFFF00000007
(1711383864.913917) can0 0000006A#5C20FFFF00000000
(1711383864.964324) can0 00000065#1027FF000000FF0B
(1711383864.964367) can0 00000066#FF9013000000FF03
(1711383864.964385) can0 00000067#FFFF00000000000F
(1711383864.964401) can0 00000068#600B6B0BAB0BA40B
(1711383864.964417) can0 00000069#B70EFFFF00000008
(1711383864.964434) can0 0000006A#5420FFFF00000001
(1711383865.014731) can0 00000065#1027FF000000FF0C
(1711383865.014772) can0 00000066#FFDF13000000FF04
(1711383865.014791) can0 00000067#FFFF000000000000
(1711383865.014807) can0 00000068#600BF30BB40B4F0B
(1711383865.014822) can0 00000069#BE0EFFFF00000009
(1711383865.014838) can0 0000006A#4520FFFF00000002
(1711383865.065404) can0 00000065#1027FF000000FF0D
(1711383865.065463) can0 00000066#FFBD13000000FF05
(1711383865.065483) can0 00000067#FFFF000000000001
(1711383865.065500) can0 00000068#570BC70B820B9C0B
(1711383865.065517) can0 00000069#C70EFFFF0000000A
(1711383865.065532) can0 0000006A#3520FFFF00000003
(1711383865.115937) can0 00000065#1027FF000000FF0E
(1711383865.115979) can0 00000066#FF3D13000000FF06
(1711383865.115999) can0 00000067#FFFF000000000002
(1711383865.116016) can0 00000068#6B0B7D0B040CDE0B
(1711383865.116030) can0 00000069#CB0EFFFF0000000B
(1711383865.116045) can0 0000006A#2F20FFFF00000004
(1711383865.166337) can0 00000065#1027FF000000FF0F
(1711383865.166374) can0 00000066#FF9013000000FF07
(1711383865.166393) can0 00000067#FFFF000000000003
(1711383865.166408) can0 00000068#860BB70B910B8A0B
(1711383865.166423) can0 00000069#CD0EFFFF0000000C
(1711383865.166438) can0 0000006A#2420FFFF00000005
(1711383865.216846) can0 00000065#1027FF000000FF00
(1711383865.216888) can0 00000066#FF6113000000FF08
(1711383865.216906) can0 00000067#FFFF000000000004
(1711383865.216923) can0 00000068#990BAB0BBD0B610B
(1711383865.216938) can0 00000069#D10EFFFF0000000D
(1711383865.216954) can0 0000006A#1220FFFF00000006
(1711383865.267335) can0 00000065#1027FF000000FF01
(1711383865.267378) can0 00000066#FFB013000000FF09
(1711383865.267397) can0 00000067#FFFF000000000005
(1711383865.267413) can0 00000068#490BF90B620BE10B
(1711383865.267428) can0 00000069#D60EFFFF0000000E
(1711383865.267444) can0 0000006A#0720FFFF00000007
(1711383865.317904) can0 00000065#1027FF000000FF02
(1711383865.317946) can0 00000066#FFCB13000000FF0A
(1711383865.317964) can0 00000067#FFFF000000000006
(1711383865.317980) can0 00000068#AE0B680BAD0B4B0B
(1711383865.317995) can0 00000069#DB0EFFFF0000000F
(1711383865.318011) can0 0000006A#FF1FFFFF00000008
(1711383865.368402) can0 00000065#1027FF000000FF03
(1711383865.368446) can0 00000066#FF4C13000000FF0B
(1711383865.368463) can0 00000067#FFFF000000000007
(1711383865.368481) can0 00000068#D40BFD0B660BB70B
(1711383865.368496) can0 00000069#E40EFFFF00000000
(1711383865.368512) can0 0000006A#FB1FFFFF00000009
(1711383865.418892) can0 00000065#1027FF000000FF04
(1711383865.418936) can0 00000066#FF7B13000000FF0C
(1711383865.418955) can0 00000067#FFFF000000000008
(1711383865.418971) can0 00000068#840B5E0B560B010C
(1711383865.418986) can0 00000069#E60EFFFF00000001
(1711383865.419004) can0 0000006A#EC1FFFFF0000000A
(1711383865.469442) can0 00000065#1027FF000000FF05
(1711383865.469486) can0 00000066#FF7613000000FF0D
(1711383865.469505) can0 00000067#FFFF000000000009
(1711383865.469521) can0 00000068#510BBE0B010CC80B
(1711383865.469536) can0 00000069#EB0EFFFF00000002
(1711383865.469552) can0 0000006A#E81FFFFF0000000B
(1711383865.519929) can0 00000065#1027FF000000FF06
(1711383865.519980) can0 00000066#FF6813000000FF0E
(1711383865.520002) can0 00000067#FFFF00000000000A
(1711383865.520020) can0 00000068#C20B030C640B0D0C
(1711383865.520037) can0 00000069#EC0EFFFF00000003
(1711383865.520055) can0 0000006A#E81FFFFF0000000C
(1711383865.570343) can0 00000065#1027FF000000FF07
(1711383865.570383) can0 00000066#FFCE13000000FF0F
(1711383865.570401) can0 00000067#FFFF00000000000B
(1711383865.570417) can0 00000068#DB0BCC0BDD0BCC0B
(1711383865.570433) can0 00000069#ED0EFFFF00000004
(1711383865.570447) can0 0000006A#E81FFFFF0000000D
(1711383865.620886) can0 00000065#1027FF000000FF08
(1711383865.620944) can0 00000066#FF9913000000FF00
(1711383865.620968) can0 00000067#FFFF00000000000C
(1711383865.620984) can0 00000068#C70B420BE10B820B
(1711383865.621000) can0 00000069#ED0EFFFF00000005
(1711383865.621019) can0 0000006A#D71FFFFF0000000E
(1711383865.671496) can0 00000065#1027FF000000FF09
(1711383865.671541) can0 00000066#FFA913000000FF01
(1711383865.671561) can0 00000067#FFFF00000000000D
(1711383865.671578) can0 00000068#6C0BD20B6C0B890B
(1711383865.671596) can0 00000069#EC0EFFFF00000006
(1711383865.671615) can0 0000006A#CB1FFFFF0000000F
(1711383865.721865) can0 00000065#1027FF000000FF0A
(1711383865.721903) can0 00000066#FFC513000000FF02
(1711383865.721920) can0 00000067#FFFF00000000000E
(1711383865.721935) can0 00000068#D20BC30BEB0B920B
(1711383865.721950) can0 00000069#ED0EFFFF00000007
(1711383865.721964) can0 0000006A#C31FFFFF00000000
(1711383865.772407) can0 00000065#1027FF000000FF0B
(1711383865.772451) can0 00000066#FFB613000000FF03
(1711383865.772472) can0 00000067#FFFF00000000000F
(1711383865.772488) can0 00000068#470B050CFB0BF00B
(1711383865.772502) can0 00000069#F20EFFFF00000008
(1711383865.772517) can0 0000006A#B21FFFFF00000001
(1711383865.822834) can0 00000065#1027FF000000FF0C
(1711383865.822877) can0 00000066#FF3B13000000FF04
(1711383865.822896) can0 00000067#FFFF000000000000
(1711383865.822912) can0 00000068#9C0B880B9C0BCC0B
(1711383865.822929) can0 00000069#F60EFFFF00000009
(1711383865.822943) can0 0000006A#AF1FFFFF00000002
(1711383865.873231) can0 00000065#1027FF000000FF0D
(1711383865.873273) can0 00000066#FF5613000000FF05
(1711383865.873291) can0 00000067#FFFF000000000001
(1711383865.873308) can0 00000068#C00B540BF60BB20B
(1711383865.873324) can0 00000069#FE0EFFFF0000000A
(1711383865.873340) can0 0000006A#9C1FFFFF00000003
(1711383865.923803) can0 00000065#1027FF000000FF0E
(1711383865.923855) can0 00000066#FF9B13000000FF06
(1711383865.923879) can0 00000067#FFFF000000000002
(1711383865.923897) can0 00000068#BB0B9F0BDF0B630B
(1711383865.923915) can0 00000069#060FFFFF0000000B
(1711383865.923935) can0 0000006A#8F1FFFFF00000004
(1711383865.974201) can0 00000065#1027FF000000FF0F
(1711383865.974242) can0 00000066#FF9913000000FF07
(1711383865.974260) can0 00000067#FFFF000000000003
(1711383865.974276) can0 00000068#9D0B550BB50B0E0C
(1711383865.974293) can0 00000069#0B0FFFFF0000000C
(1711383865.974309) can0 0000006A#8D1FFFFF00000005
(1711383866.024688) can0 00000065#1027FF000000FF00
(1711383866.024730) can0 00000066#FF9B13000000FF08
(1711383866.024748) can0 00000067#FFFF000000000004
(1711383866.024764) can0 00000068#400BDC0B830BD70B
(1711383866.024779) can0 00000069#0D0FFFFF0000000D
(1711383866.024793) can0 0000006A#821FFFFF00000006
(1711383866.075166) can0 00000065#1027FF000000FF01
(1711383866.075208) can0 00000066#FFB013000000FF09
(1711383866.075227) can0 00000067#FFFF000000000005
(1711383866.075244) can0 00000068#7B0B480B760B550B
(1711383866.075259) can0 00000069#140FFFFF0000000E
(1711383866.075277) can0 0000006A#821FFFFF00000007
(1711383866.125733) can0 00000065#1027FF000000FF02
(1711383866.125776) can0 00000066#FF3B13000000FF0A
(1711383866.125796) can0 00000067#FFFF000000000006
(1711383866.125812) can0 00000068#F80BEF0BB70B780B
(1711383866.125827) can0 00000069#1C0FFFFF0000000F
(1711383866.125843) can0 0000006A#731FFFFF00000008
(1711383866.176254) can0 00000065#1027FF000000FF03
(1711383866.176295) can0 00000066#FFAE13000000FF0B
(1711383866.176313) can0 00000067#FFFF000000000007
(1711383866.176331) can0 00000068#970BA40B870BA50B
(1711383866.176347) can0 00000069#1F0FFFFF00000000
(1711383866.176362) can0 0000006A#6B1FFFFF00000009
(1711383866.226841) can0 00000065#1027FF000000FF04
(1711383866.226881) can0 00000066#FFBE13000000FF0C
(1711383866.226900) can0 00000067#FFFF000000000008
(1711383866.226915) can0 00000068#9B0BC60BBE0BE80B
(1711383866.226930) can0 00000069#210FFFFF00000001
(1711383866.226945) can0 0000006A#661FFFFF0000000A
(1711383866.277288) can0 00000065#1027FF000000FF05
(1711383866.277329) can0 00000066#FF4C13000000FF0D
(1711383866.277347) can0 00000067#FFFF000000000009
(1711383866.277362) can0 00000068#DB0BD90B500B000C
(1711383866.277376) can0 00000069#230FFFFF00000002
(1711383866.277391) can0 0000006A#5A1FFFFF0000000B
(1711383866.327793) can0 00000065#1027FF000000FF06
(1711383866.327838) can0 00000066#FFC013000000FF0E
(1711383866.327856) can0 00000067#FFFF00000000000A
(1711383866.327873) can0 00000068#F30B860B890B8A0B
(1711383866.327890) can0 00000069#290FFFFF00000003
(1711383866.327905) can0 0000006A#561FFFFF0000000C
(1711383866.378202) can0 00000065#1027FF000000FF07
(1711383866.378246) can0 00000066#FF7B13000000FF0F
(1711383866.378264) can0 00000067#FFFF00000000000B
(1711383866.378281) can0 00000068#E30BED0BD90B830B
(1711383866.378297) can0 00000069#2A0FFFFF00000004
(1711383866.378311) can0 0000006A#4A1FFFFF0000000D
(1711383866.428741) can0 00000065#1027FF000000FF08
(1711383866.428784) can0 00000066#FFC613000000FF00
(1711383866.428803) can0 00000067#FFFF00000000000C
(1711383866.428820) can0 00000068#AD0B7B0BE70BB70B
(1711383866.428835) can0 00000069#2D0FFFFF00000005
(1711383866.428850) can0 0000006A#421FFFFF0000000E
(1711383866.479282) can0 00000065#1027FF000000FF09
(1711383866.479326) can0 00000066#FF3A13000000FF01
(1711383866.479345) can0 00000067#FFFF00000000000D
(1711383866.479361) can0 00000068#FC0B050CA00B580B
(1711383866.479377) can0 00000069#300FFFFF00000006
(1711383866.479393) can0 0000006A#331FFFFF0000000F
(1711383866.529816) can0 00000065#1027FF000000FF0A
(1711383866.529857) can0 00000066#FF4413000000FF02
(1711383866.529875) can0 00000067#FFFF00000000000E
(1711383866.529892) can0 00000068#810B670BF40B9B0B
(1711383866.529907) can0 00000069#2F0FFFFF00000007
(1711383866.529921) can0 0000006A#2A1FFFFF00000000
(1711383866.580326) can0 00000065#1027FF000000FF0B
(1711383866.580367) can0 00000066#FF4013000000FF03
(1711383866.580385) can0 00000067#FFFF00000000000F
(1711383866.580402) can0 00000068#910B660BDB0BDB0B
(1711383866.580419) can0 00000069#350FFFFF00000008
(1711383866.580434) can0 0000006A#281FFFFF00000001
(1711383866.630754) can0 00000065#1027FF000000FF0C
(1711383866.630775) can0 00000066#FF7A13000000FF04
(1711383866.630783) can0 00000067#FFFF000000000000
(1711383866.630802) can0 00000068#BB0BCE0B800BCF0B
